2026-09-09 07:59:41,230 | INFO: Starting App
2026-09-09 07:59:41,237 | INFO: Initializing App
2026-09-09 07:59:41,237 | DEBUG: Start data_handler.py
2026-09-09 07:59:41,237 | DEBUG: Starting process: data_handler.py
2026-09-09 07:59:41,238 | DEBUG: Process data_handler.py started with PID: 2512
2026-09-09 07:59:41,239 | DEBUG: Sleep 1s then start module_IO.py
2026-09-09 07:59:42,239 | DEBUG: Starting process: module_IO.py
2026-09-09 07:59:42,240 | DEBUG: Process module_IO.py started with PID: 2513
2026-09-09 07:59:42,240 | DEBUG: Sleep 1s then start displayGUI.py
2026-09-09 07:59:43,241 | DEBUG: Starting process: displayGUI.py
2026-09-09 07:59:43,245 | DEBUG: Process displayGUI.py started with PID: 2535
2026-09-09 07:59:43,246 | DEBUG: Sleep 1s then start modbusTcpServer.py
2026-09-09 07:59:44,246 | DEBUG: Starting process: modbusTcpServer.py
2026-09-09 07:59:44,248 | DEBUG: Process modbusTcpServer.py started with PID: 2537
2026-09-09 07:59:44,248 | DEBUG: Init GUI Tkinter
2026-09-09 07:59:44,547 | DEBUG: Start Threads - Streaming + Watchdog
2026-09-09 07:59:44,549 | DEBUG: Module IO | Initialize program
2026-09-09 07:59:44,550 | DEBUG: Module IO | Start loop
2026-09-09 07:59:44,551 | DEBUG: Display GUI | Initialize program
2026-09-09 07:59:44,552 | DEBUG: Display GUI | Start Loop
2026-09-09 07:59:44,635 | DEBUG: Modbus Server | Initialize program
2026-09-09 07:59:44,636 | DEBUG: Modbus Server | Start Loop
2026-09-09 08:00:01,604 | DEBUG: Data Handler | Initialize Program
2026-09-09 08:00:01,605 | DEBUG: Data Handler | Start Loop
2026-09-09 08:00:05,819 | DEBUG: Child Output: 08:00:05 WARNING serial:261 Cleanup recv buffer before send: 0x2 0x3 0x3 0x20 0x0 0x6 0xc4 0x75
2026-09-09 08:00:06,280 | DEBUG: Child Output: 08:00:06 WARNING serial:261 Cleanup recv buffer before send: 0x2 0x3 0x3 0x26 0x0 0x5a 0x24 0x4d
2026-09-09 08:00:30,991 | DEBUG: Child Output: 08:00:30 WARNING serial:261 Cleanup recv buffer before send: 0x2 0x3 0x3 0x20 0x0 0x6 0xc4 0x75
2026-09-09 08:00:31,451 | DEBUG: Child Output: 08:00:31 WARNING serial:261 Cleanup recv buffer before send: 0x2 0x3 0x3 0x26 0x0 0x5a 0x24 0x4d
2026-09-09 08:00:53,427 | DEBUG: Child Output: 08:00:53 WARNING serial:261 Cleanup recv buffer before send: 0x2 0x3 0x0 0x0 0x0 0x1d 0x85 0xf0
2026-09-09 08:00:57,571 | DEBUG: Child Output: 08:00:57 WARNING serial:261 Cleanup recv buffer before send: 0x2 0x3 0x3 0x20 0x0 0x6 0xc4 0x75
2026-09-09 08:01:00,781 | DEBUG: Child Output: 08:01:00 WARNING serial:261 Cleanup recv buffer before send: 0x2 0x3 0x3 0x26 0x0 0x5a 0x24 0x4d
2026-09-09 08:01:03,992 | DEBUG: Child Output: 08:01:03 WARNING serial:261 Cleanup recv buffer before send: 0x2 0x3 0x3 0x80 0x0 0x5a 0xc4 0x6e
2026-09-09 08:01:46,858 | DEBUG: Child Output: 08:01:46 WARNING serial:261 Cleanup recv buffer before send: 0x2 0x3 0x3 0x20 0x0 0x6 0xc4 0x75
2026-09-09 08:01:47,318 | DEBUG: Child Output: 08:01:47 WARNING serial:261 Cleanup recv buffer before send: 0x2 0x3 0x3 0x26 0x0 0x5a 0x24 0x4d
2026-09-09 08:02:09,286 | DEBUG: Child Output: 08:02:09 WARNING serial:261 Cleanup recv buffer before send: 0x2 0x3 0x0 0x0 0x0 0x1d 0x85 0xf0
2026-09-09 08:02:13,430 | DEBUG: Child Output: 08:02:13 WARNING serial:261 Cleanup recv buffer before send: 0x2 0x3 0x3 0x20 0x0 0x6 0xc4 0x75
2026-09-09 08:02:16,640 | DEBUG: Child Output: 08:02:16 WARNING serial:261 Cleanup recv buffer before send: 0x2 0x3 0x3 0x26 0x0 0x5a 0x24 0x4d
2026-09-09 08:02:19,849 | DEBUG: Child Output: 08:02:19 WARNING serial:261 Cleanup recv buffer before send: 0x2 0x3 0x3 0x80 0x0 0x5a 0xc4 0x6e
2026-09-09 08:02:40,370 | DEBUG: Child Output: 08:02:40 WARNING serial:261 Cleanup recv buffer before send: 0x2 0x3 0x3 0x26 0x0 0x5a 0x24 0x4d
2026-09-09 08:02:43,581 | DEBUG: Child Output: 08:02:43 WARNING serial:261 Cleanup recv buffer before send: 0x2 0x3 0x3 0x80 0x0 0x5a 0xc4 0x6e
2026-09-09 08:03:07,869 | DEBUG: Data Handler | Check Current Excel Size
2026-09-09 08:03:07,870 | DEBUG: Data Handler | Backup Excel
2026-09-09 08:03:07,870 | DEBUG: Data Handler | Try to save Excel from work stage
2026-09-09 08:03:07,870 | DEBUG: Data Handler | Excel Size 10631
2026-09-09 08:03:07,870 | DEBUG: Data Handler | Backup Size 7245
2026-09-09 08:03:07,870 | DEBUG: Data Handler | Save Success
2026-09-09 08:03:12,091 | DEBUG: Child Output: 08:03:12 WARNING serial:261 Cleanup recv buffer before send: 0x2 0x3 0x0 0x2e 0x0 0x5 0xe5 0xf3
2026-09-09 08:03:15,548 | DEBUG: Child Output: 08:03:15 WARNING serial:261 Cleanup recv buffer before send: 0x2 0x3 0x3 0x26 0x0 0x5a 0x24 0x4d
2026-09-09 08:03:18,759 | DEBUG: Child Output: 08:03:18 WARNING serial:261 Cleanup recv buffer before send: 0x2 0x3 0x3 0x80 0x0 0x5a 0xc4 0x6e
2026-09-09 08:03:43,913 | DEBUG: Child Output: 08:03:43 WARNING serial:261 Cleanup recv buffer before send: 0x2 0x3 0x3 0x20 0x0 0x6 0xc4 0x75
2026-09-09 08:03:44,377 | DEBUG: Child Output: 08:03:44 WARNING serial:261 Cleanup recv buffer before send: 0x2 0x3 0x3 0x26 0x0 0x5a 0x24 0x4d
2026-09-09 08:04:06,560 | DEBUG: Child Output: 08:04:06 WARNING serial:261 Cleanup recv buffer before send: 0x2 0x3 0x3 0x26 0x0 0x5a 0x24 0x4d
2026-09-09 08:04:28,294 | DEBUG: Child Output: 08:04:28 WARNING serial:261 Cleanup recv buffer before send: 0x2 0x3 0x3 0x20 0x0 0x6 0xc4 0x75
2026-09-09 08:04:28,753 | DEBUG: Child Output: 08:04:28 WARNING serial:261 Cleanup recv buffer before send: 0x2 0x3 0x3 0x26 0x0 0x5a 0x24 0x4d
2026-09-09 08:04:31,963 | DEBUG: Child Output: 08:04:31 WARNING serial:261 Cleanup recv buffer before send: 0x2 0x3 0x3 0x80 0x0 0x5a 0xc4 0x6e
2026-09-09 08:04:54,129 | DEBUG: Child Output: 08:04:54 WARNING serial:261 Cleanup recv buffer before send: 0x1 0x85 0x2 0xc3 0x51 0x3 0x3 0x0 0x4 0x0 0x3 0x45 0xe8
2026-09-09 08:04:58,020 | DEBUG: Child Output: 08:04:58 WARNING serial:261 Cleanup recv buffer before send: 0x2 0x3 0x3 0x20 0x0 0x6 0xc4 0x75
2026-09-09 08:05:01,229 | DEBUG: Child Output: 08:05:01 WARNING serial:261 Cleanup recv buffer before send: 0x2 0x3 0x3 0x26 0x0 0x5a 0x24 0x4d
2026-09-09 08:05:04,440 | DEBUG: Child Output: 08:05:04 WARNING serial:261 Cleanup recv buffer before send: 0x2 0x3 0x3 0x80 0x0 0x5a 0xc4 0x6e
2026-09-09 08:05:22,951 | DEBUG: Child Output: 08:05:22 WARNING serial:261 Cleanup recv buffer before send: 0x1 0x85 0x2 0xc3 0x51 0x3 0x3 0x0 0x4 0x0 0x3 0x45 0xe8
2026-09-09 08:05:26,846 | DEBUG: Child Output: 08:05:26 WARNING serial:261 Cleanup recv buffer before send: 0x2 0x3 0x3 0x20 0x0 0x6 0xc4 0x75
2026-09-09 08:05:36,268 | DEBUG: Child Output: 08:05:36 ERROR factory:331 unpack requires a buffer of 2 bytes
2026-09-09 08:05:36,270 | DEBUG: Child Output: 08:05:36 ERROR transaction:244 Modbus Error: [Input/Output] Unable to decode request
2026-09-09 08:05:36,270 | DEBUG: Child Output: Traceback (most recent call last):
2026-09-09 08:05:36,271 | DEBUG: Child Output: File "/usr/lib/python3/dist-packages/pymodbus/transaction.py", line 217, in execute
2026-09-09 08:05:36,271 | DEBUG: Child Output: self.client.framer.processIncomingPacket(
2026-09-09 08:05:36,271 | DEBUG: Child Output: File "/usr/lib/python3/dist-packages/pymodbus/framer/rtu_framer.py", line 239, in processIncomingPacket
2026-09-09 08:05:36,271 | DEBUG: Child Output: self._process(callback)
2026-09-09 08:05:36,271 | DEBUG: Child Output: File "/usr/lib/python3/dist-packages/pymodbus/framer/rtu_framer.py", line 331, in _process
2026-09-09 08:05:36,271 | DEBUG: Child Output: raise ModbusIOException("Unable to decode request")
2026-09-09 08:05:36,271 | DEBUG: Child Output: pymodbus.exceptions.ModbusIOException: Modbus Error: [Input/Output] Unable to decode request
2026-09-09 08:05:52,272 | DEBUG: Child Output: 08:05:52 WARNING serial:261 Cleanup recv buffer before send: 0x2 0x3 0x3 0x26 0x0 0x5a 0x24 0x4d
2026-09-09 08:06:10,367 | DEBUG: Data Handler | Check Current Excel Size
2026-09-09 08:06:10,368 | DEBUG: Data Handler | Backup Excel
2026-09-09 08:06:10,368 | DEBUG: Data Handler | Try to save Excel from work stage
2026-09-09 08:06:10,368 | DEBUG: Data Handler | Excel Size 13396
2026-09-09 08:06:10,368 | DEBUG: Data Handler | Backup Size 10631
2026-09-09 08:06:10,368 | DEBUG: Data Handler | Save Success
2026-09-09 08:06:14,583 | DEBUG: Child Output: 08:06:14 WARNING serial:261 Cleanup recv buffer before send: 0x2 0x3 0x3 0x20 0x0 0x6 0xc4 0x75
2026-09-09 08:06:15,043 | DEBUG: Child Output: 08:06:15 WARNING serial:261 Cleanup recv buffer before send: 0x2 0x3 0x3 0x26 0x0 0x5a 0x24 0x4d
2026-09-09 08:06:18,252 | DEBUG: Child Output: 08:06:18 WARNING serial:261 Cleanup recv buffer before send: 0x2 0x3 0x3 0x80 0x0 0x5a 0xc4 0x6e
2026-09-09 08:06:25,919 | DEBUG: Child Output: 08:06:25 WARNING serial:261 Cleanup recv buffer before send: 0x1 0x5 0x0 0x1 0x0 0x0 0x9c 0xa
2026-09-09 08:06:37,236 | DEBUG: Child Output: 08:06:37 WARNING serial:261 Cleanup recv buffer before send: 0x2 0x3 0x3 0x20 0x0 0x6 0xc4 0x75
2026-09-09 08:06:37,696 | DEBUG: Child Output: 08:06:37 WARNING serial:261 Cleanup recv buffer before send: 0x2 0x3 0x3 0x26 0x0 0x5a 0x24 0x4d
2026-09-09 08:06:59,424 | DEBUG: Child Output: 08:06:59 WARNING serial:261 Cleanup recv buffer before send: 0x2 0x3 0x3 0x20 0x0 0x6 0xc4 0x75
2026-09-09 08:06:59,883 | DEBUG: Child Output: 08:06:59 WARNING serial:261 Cleanup recv buffer before send: 0x2 0x3 0x3 0x26 0x0 0x5a 0x24 0x4d
2026-09-09 08:07:03,093 | DEBUG: Child Output: 08:07:03 WARNING serial:261 Cleanup recv buffer before send: 0x2 0x3 0x3 0x80 0x0 0x5a 0xc4 0x6e
2026-09-09 08:07:31,256 | DEBUG: Child Output: 08:07:31 WARNING serial:261 Cleanup recv buffer before send: 0x2 0x3 0x3 0x20 0x0 0x6 0xc4 0x75
2026-09-09 08:07:31,715 | DEBUG: Child Output: 08:07:31 WARNING serial:261 Cleanup recv buffer before send: 0x2 0x3 0x3 0x26 0x0 0x5a 0x24 0x4d
2026-09-09 08:07:34,925 | DEBUG: Child Output: 08:07:34 WARNING serial:261 Cleanup recv buffer before send: 0x2 0x3 0x3 0x80 0x0 0x5a 0xc4 0x6e
2026-09-09 08:07:57,152 | DEBUG: Child Output: 08:07:57 WARNING serial:261 Cleanup recv buffer before send: 0x2 0x3 0x3 0x20 0x0 0x6 0xc4 0x75
2026-09-09 08:07:57,611 | DEBUG: Child Output: 08:07:57 WARNING serial:261 Cleanup recv buffer before send: 0x2 0x3 0x3 0x26 0x0 0x5a 0x24 0x4d
2026-09-09 08:08:22,328 | DEBUG: Child Output: 08:08:22 WARNING serial:261 Cleanup recv buffer before send: 0x2 0x3 0x0 0x2e 0x0 0x5 0xe5 0xf3
2026-09-09 08:08:25,787 | DEBUG: Child Output: 08:08:25 WARNING serial:261 Cleanup recv buffer before send: 0x2 0x3 0x3 0x26 0x0 0x5a 0x24 0x4d
2026-09-09 08:08:28,997 | DEBUG: Child Output: 08:08:28 WARNING serial:261 Cleanup recv buffer before send: 0x2 0x3 0x3 0x80 0x0 0x5a 0xc4 0x6e
2026-09-09 08:08:54,411 | DEBUG: Child Output: 08:08:54 WARNING serial:261 Cleanup recv buffer before send: 0x2 0x3 0x3 0x26 0x0 0x5a 0x24 0x4d
2026-09-09 08:09:14,548 | DEBUG: Data Handler | Check Current Excel Size
2026-09-09 08:09:14,549 | DEBUG: Data Handler | Backup Excel
2026-09-09 08:09:14,549 | DEBUG: Data Handler | Try to save Excel from work stage
2026-09-09 08:09:14,549 | DEBUG: Data Handler | Excel Size 16164
2026-09-09 08:09:14,549 | DEBUG: Data Handler | Backup Size 13396
2026-09-09 08:09:14,549 | DEBUG: Data Handler | Save Success
2026-09-09 08:09:18,764 | DEBUG: Child Output: 08:09:18 WARNING serial:261 Cleanup recv buffer before send: 0x1 0x85 0x2 0xc3 0x51 0x3 0x3 0x0 0x4 0x0 0x3 0x45 0xe8
2026-09-09 08:09:32,101 | DEBUG: Child Output: 08:09:32 ERROR factory:331 unpack requires a buffer of 2 bytes
2026-09-09 08:09:32,103 | DEBUG: Child Output: 08:09:32 ERROR transaction:244 Modbus Error: [Input/Output] Unable to decode request
2026-09-09 08:09:32,103 | DEBUG: Child Output: Traceback (most recent call last):
2026-09-09 08:09:32,104 | DEBUG: Child Output: File "/usr/lib/python3/dist-packages/pymodbus/transaction.py", line 217, in execute
2026-09-09 08:09:32,104 | DEBUG: Child Output: self.client.framer.processIncomingPacket(
2026-09-09 08:09:32,104 | DEBUG: Child Output: File "/usr/lib/python3/dist-packages/pymodbus/framer/rtu_framer.py", line 239, in processIncomingPacket
2026-09-09 08:09:32,104 | DEBUG: Child Output: self._process(callback)
2026-09-09 08:09:32,104 | DEBUG: Child Output: File "/usr/lib/python3/dist-packages/pymodbus/framer/rtu_framer.py", line 331, in _process
2026-09-09 08:09:32,104 | DEBUG: Child Output: raise ModbusIOException("Unable to decode request")
2026-09-09 08:09:32,105 | DEBUG: Child Output: pymodbus.exceptions.ModbusIOException: Modbus Error: [Input/Output] Unable to decode request
2026-09-09 08:09:47,633 | DEBUG: Child Output: 08:09:47 WARNING serial:261 Cleanup recv buffer before send: 0x2 0x3 0x0 0x2e 0x0 0x5 0xe5 0xf3
2026-09-09 08:09:51,089 | DEBUG: Child Output: 08:09:51 WARNING serial:261 Cleanup recv buffer before send: 0x2 0x3 0x3 0x26 0x0 0x5a 0x24 0x4d
2026-09-09 08:10:19,733 | DEBUG: Child Output: 08:10:19 WARNING serial:261 Cleanup recv buffer before send: 0x2 0x3 0x3 0x26 0x0 0x5a 0x24 0x4d
2026-09-09 08:10:43,913 | DEBUG: Child Output: 08:10:43 WARNING serial:261 Cleanup recv buffer before send: 0x2 0x3 0x3 0x26 0x0 0x5a 0x24 0x4d
2026-09-09 08:11:06,410 | DEBUG: Child Output: 08:11:06 WARNING serial:261 Cleanup recv buffer before send: 0x1 0x85 0x2 0xc3 0x51 0x3 0x3 0x0 0x4 0x0 0x3 0x45 0xe8
2026-09-09 08:11:10,304 | DEBUG: Child Output: 08:11:10 WARNING serial:261 Cleanup recv buffer before send: 0x2 0x3 0x3 0x20 0x0 0x6 0xc4 0x75
2026-09-09 08:11:19,730 | DEBUG: Child Output: 08:11:19 ERROR factory:331 unpack requires a buffer of 2 bytes
2026-09-09 08:11:19,731 | DEBUG: Child Output: 08:11:19 ERROR transaction:244 Modbus Error: [Input/Output] Unable to decode request
2026-09-09 08:11:19,732 | DEBUG: Child Output: Traceback (most recent call last):
2026-09-09 08:11:19,732 | DEBUG: Child Output: File "/usr/lib/python3/dist-packages/pymodbus/transaction.py", line 217, in execute
2026-09-09 08:11:19,732 | DEBUG: Child Output: self.client.framer.processIncomingPacket(
2026-09-09 08:11:19,732 | DEBUG: Child Output: File "/usr/lib/python3/dist-packages/pymodbus/framer/rtu_framer.py", line 239, in processIncomingPacket
2026-09-09 08:11:19,732 | DEBUG: Child Output: self._process(callback)
2026-09-09 08:11:19,732 | DEBUG: Child Output: File "/usr/lib/python3/dist-packages/pymodbus/framer/rtu_framer.py", line 331, in _process
2026-09-09 08:11:19,732 | DEBUG: Child Output: raise ModbusIOException("Unable to decode request")
2026-09-09 08:11:19,732 | DEBUG: Child Output: pymodbus.exceptions.ModbusIOException: Modbus Error: [Input/Output] Unable to decode request
2026-09-09 08:11:35,271 | DEBUG: Child Output: 08:11:35 WARNING serial:261 Cleanup recv buffer before send: 0x1 0x85 0x2 0xc3 0x51 0x3 0x3 0x0 0x4 0x0 0x3 0x45 0xe8
2026-09-09 08:11:39,166 | DEBUG: Child Output: 08:11:39 WARNING serial:261 Cleanup recv buffer before send: 0x2 0x3 0x3 0x20 0x0 0x6 0xc4 0x75
2026-09-09 08:11:48,587 | DEBUG: Child Output: 08:11:48 ERROR factory:331 unpack requires a buffer of 2 bytes
2026-09-09 08:11:48,587 | DEBUG: Child Output: 08:11:48 ERROR transaction:244 Modbus Error: [Input/Output] Unable to decode request
2026-09-09 08:11:48,587 | DEBUG: Child Output: Traceback (most recent call last):
2026-09-09 08:11:48,588 | DEBUG: Child Output: File "/usr/lib/python3/dist-packages/pymodbus/transaction.py", line 217, in execute
2026-09-09 08:11:48,588 | DEBUG: Child Output: self.client.framer.processIncomingPacket(
2026-09-09 08:11:48,588 | DEBUG: Child Output: File "/usr/lib/python3/dist-packages/pymodbus/framer/rtu_framer.py", line 239, in processIncomingPacket
2026-09-09 08:11:48,588 | DEBUG: Child Output: self._process(callback)
2026-09-09 08:11:48,588 | DEBUG: Child Output: File "/usr/lib/python3/dist-packages/pymodbus/framer/rtu_framer.py", line 331, in _process
2026-09-09 08:11:48,588 | DEBUG: Child Output: raise ModbusIOException("Unable to decode request")
2026-09-09 08:11:48,588 | DEBUG: Child Output: pymodbus.exceptions.ModbusIOException: Modbus Error: [Input/Output] Unable to decode request
2026-09-09 08:12:04,125 | DEBUG: Child Output: 08:12:04 WARNING serial:261 Cleanup recv buffer before send: 0x1 0x85 0x2 0xc3 0x51 0x3 0x3 0x0 0x4 0x0 0x3 0x45 0xe8
2026-09-09 08:12:29,191 | DEBUG: Data Handler | Check Current Excel Size
2026-09-09 08:12:29,191 | DEBUG: Data Handler | Backup Excel
2026-09-09 08:12:29,191 | DEBUG: Data Handler | Try to save Excel from work stage
2026-09-09 08:12:29,191 | DEBUG: Data Handler | Excel Size 18823
2026-09-09 08:12:29,191 | DEBUG: Data Handler | Backup Size 16164
2026-09-09 08:12:29,191 | DEBUG: Data Handler | Save Success
2026-09-09 08:12:33,412 | DEBUG: Child Output: 08:12:33 WARNING serial:261 Cleanup recv buffer before send: 0x2 0x3 0x0 0x2e 0x0 0x5 0xe5 0xf3
2026-09-09 08:12:36,871 | DEBUG: Child Output: 08:12:36 WARNING serial:261 Cleanup recv buffer before send: 0x2 0x3 0x3 0x26 0x0 0x5a 0x24 0x4d
2026-09-09 08:12:58,606 | DEBUG: Child Output: 08:12:58 WARNING serial:261 Cleanup recv buffer before send: 0x2 0x3 0x0 0x2e 0x0 0x5 0xe5 0xf3
2026-09-09 08:13:02,062 | DEBUG: Child Output: 08:13:02 WARNING serial:261 Cleanup recv buffer before send: 0x2 0x3 0x3 0x26 0x0 0x5a 0x24 0x4d
2026-09-09 08:13:05,272 | DEBUG: Child Output: 08:13:05 WARNING serial:261 Cleanup recv buffer before send: 0x2 0x3 0x3 0x80 0x0 0x5a 0xc4 0x6e
2026-09-09 08:13:30,443 | DEBUG: Child Output: 08:13:30 WARNING serial:261 Cleanup recv buffer before send: 0x2 0x3 0x3 0x20 0x0 0x6 0xc4 0x75
2026-09-09 08:13:30,903 | DEBUG: Child Output: 08:13:30 WARNING serial:261 Cleanup recv buffer before send: 0x2 0x3 0x3 0x26 0x0 0x5a 0x24 0x4d
2026-09-09 08:13:44,554 | INFO: Restart triggered by watchdog freeze detection
2026-09-09 08:13:44,595 | DEBUG: Child Output: 08:13:44 ERROR base_events:1771 Task exception was never retrieved
2026-09-09 08:13:44,595 | DEBUG: Child Output: future: <Task finished name='Task-1' coro=<run_server() done, defined at /home/pi/tmu-v2-smart/modbusTcpServer.py:242> exception=SystemExit(0)>
2026-09-09 08:13:44,596 | DEBUG: Child Output: Traceback (most recent call last):
2026-09-09 08:13:44,596 | DEBUG: Child Output: File "/usr/lib/python3.11/asyncio/runners.py", line 189, in run
2026-09-09 08:13:44,597 | DEBUG: Child Output: with Runner(debug=debug) as runner:
2026-09-09 08:13:44,597 | DEBUG: Child Output: File "/usr/lib/python3.11/asyncio/runners.py", line 63, in __exit__
2026-09-09 08:13:44,597 | DEBUG: Child Output: self.close()
2026-09-09 08:13:44,598 | DEBUG: Child Output: File "/usr/lib/python3.11/asyncio/runners.py", line 71, in close
2026-09-09 08:13:44,598 | DEBUG: Child Output: _cancel_all_tasks(loop)
2026-09-09 08:13:44,599 | DEBUG: Child Output: File "/usr/lib/python3.11/asyncio/runners.py", line 201, in _cancel_all_tasks
2026-09-09 08:13:44,599 | DEBUG: Child Output: loop.run_until_complete(tasks.gather(*to_cancel, return_exceptions=True))
2026-09-09 08:13:44,599 | DEBUG: Child Output: File "/usr/lib/python3.11/asyncio/base_events.py", line 640, in run_until_complete
2026-09-09 08:13:44,600 | DEBUG: Child Output: self.run_forever()
2026-09-09 08:13:44,600 | DEBUG: Child Output: File "/usr/lib/python3.11/asyncio/base_events.py", line 607, in run_forever
2026-09-09 08:13:44,600 | DEBUG: Child Output: self._run_once()
2026-09-09 08:13:44,601 | DEBUG: Child Output: File "/usr/lib/python3.11/asyncio/base_events.py", line 1922, in _run_once
2026-09-09 08:13:44,601 | DEBUG: Child Output: handle._run()
2026-09-09 08:13:44,601 | DEBUG: Child Output: File "/usr/lib/python3.11/asyncio/events.py", line 80, in _run
2026-09-09 08:13:44,602 | DEBUG: Child Output: self._context.run(self._callback, *self._args)
2026-09-09 08:13:44,602 | DEBUG: Child Output: File "/home/pi/tmu-v2-smart/modbusTcpServer.py", line 244, in run_server
2026-09-09 08:13:44,603 | DEBUG: Child Output: await asyncio.gather(
2026-09-09 08:13:44,603 | DEBUG: Child Output: File "/usr/lib/python3.11/asyncio/runners.py", line 190, in run
2026-09-09 08:13:44,604 | DEBUG: Child Output: return runner.run(main)
2026-09-09 08:13:44,604 | DEBUG: Child Output: ^^^^^^^^^^^^^^^^
2026-09-09 08:13:44,604 | DEBUG: Child Output: File "/usr/lib/python3.11/asyncio/runners.py", line 118, in run
2026-09-09 08:13:44,604 | DEBUG: Child Output: return self._loop.run_until_complete(task)
2026-09-09 08:13:44,605 | DEBUG: Child Output: ^^^^^^^^^^^^^^^^^^^^^^^^^^^^^^^^^^^
2026-09-09 08:13:44,605 | DEBUG: Child Output: File "/usr/lib/python3.11/asyncio/base_events.py", line 640, in run_until_complete
2026-09-09 08:13:44,605 | DEBUG: Child Output: self.run_forever()
2026-09-09 08:13:44,606 | DEBUG: Child Output: File "/usr/lib/python3.11/asyncio/base_events.py", line 607, in run_forever
2026-09-09 08:13:44,606 | DEBUG: Child Output: self._run_once()
2026-09-09 08:13:44,606 | DEBUG: Child Output: File "/usr/lib/python3.11/asyncio/base_events.py", line 1922, in _run_once
2026-09-09 08:13:44,607 | DEBUG: Child Output: handle._run()
2026-09-09 08:13:44,607 | DEBUG: Child Output: File "/usr/lib/python3.11/asyncio/events.py", line 80, in _run
2026-09-09 08:13:44,607 | DEBUG: Child Output: self._context.run(self._callback, *self._args)
2026-09-09 08:13:44,607 | DEBUG: Child Output: File "/home/pi/tmu-v2-smart/modbusTcpServer.py", line 206, in update_register_values
2026-09-09 08:13:44,608 | DEBUG: Child Output: new_values = gatherValues()
2026-09-09 08:13:44,608 | DEBUG: Child Output: ^^^^^^^^^^^^^^
2026-09-09 08:13:44,608 | DEBUG: Child Output: File "/home/pi/tmu-v2-smart/modbusTcpServer.py", line 119, in gatherValues
2026-09-09 08:13:44,608 | DEBUG: Child Output: cursor.execute(sql)
2026-09-09 08:13:44,609 | DEBUG: Child Output: File "/home/pi/.local/lib/python3.11/site-packages/mysql/connector/cursor.py", line 551, in execute
2026-09-09 08:13:44,609 | DEBUG: Child Output: self._handle_result(self._connection.cmd_query(stmt))
2026-09-09 08:13:44,609 | DEBUG: Child Output: ^^^^^^^^^^^^^^^^^^^^^^^^^^^^^^^^
2026-09-09 08:13:44,609 | DEBUG: Child Output: File "/home/pi/.local/lib/python3.11/site-packages/mysql/connector/connection.py", line 490, in cmd_query
2026-09-09 08:13:44,610 | DEBUG: Child Output: result = self._handle_result(self._send_cmd(ServerCmd.QUERY, query))
2026-09-09 08:13:44,610 | DEBUG: Child Output: ^^^^^^^^^^^^^^^^^^^^^^^^^^^^^^^^^^^^^^^^^^^^^^^^^^^^^^^^^^^
2026-09-09 08:13:44,610 | DEBUG: Child Output: File "/home/pi/.local/lib/python3.11/site-packages/mysql/connector/connection.py", line 405, in _handle_result
2026-09-09 08:13:44,610 | DEBUG: Child Output: self._socket.recv(), self.python_charset)
2026-09-09 08:13:44,611 | DEBUG: Child Output: ^^^^^^^^^^^^^^^^^^^
2026-09-09 08:13:44,611 | DEBUG: Child Output: File "/home/pi/.local/lib/python3.11/site-packages/mysql/connector/network.py", line 262, in recv_plain
2026-09-09 08:13:44,611 | DEBUG: Child Output: read = self.sock.recv_into(packet_view, rest)
2026-09-09 08:13:44,611 | DEBUG: Child Output: ^^^^^^^^^^^^^^^^^^^^^^^^^^^^^^^^^^^^^^
2026-09-09 08:13:44,612 | DEBUG: Child Output: File "/home/pi/tmu-v2-smart/modbusTcpServer.py", line 235, in handle_exit
2026-09-09 08:13:44,612 | DEBUG: Child Output: exit(0)
2026-09-09 08:13:44,612 | DEBUG: Child Output: File "<frozen _sitebuiltins>", line 26, in __call__
2026-09-09 08:13:44,612 | DEBUG: Child Output: SystemExit: 0
2026-09-09 08:13:46,753 | INFO: Starting App
2026-09-09 08:13:46,760 | INFO: Initializing App
2026-09-09 08:13:46,760 | DEBUG: Start data_handler.py
2026-09-09 08:13:46,761 | DEBUG: Starting process: data_handler.py
2026-09-09 08:13:46,762 | DEBUG: Process data_handler.py started with PID: 4940
2026-09-09 08:13:46,762 | DEBUG: Sleep 1s then start module_IO.py
2026-09-09 08:13:47,764 | DEBUG: Starting process: module_IO.py
2026-09-09 08:13:47,765 | DEBUG: Process module_IO.py started with PID: 4941
2026-09-09 08:13:47,766 | DEBUG: Sleep 1s then start displayGUI.py
2026-09-09 08:13:48,769 | DEBUG: Starting process: displayGUI.py
2026-09-09 08:13:48,770 | DEBUG: Process displayGUI.py started with PID: 4945
2026-09-09 08:13:48,770 | DEBUG: Sleep 1s then start modbusTcpServer.py
2026-09-09 08:13:49,771 | DEBUG: Starting process: modbusTcpServer.py
2026-09-09 08:13:49,772 | DEBUG: Process modbusTcpServer.py started with PID: 4947
2026-09-09 08:13:49,772 | DEBUG: Init GUI Tkinter
2026-09-09 08:13:50,031 | DEBUG: Start Threads - Streaming + Watchdog
2026-09-09 08:13:50,033 | DEBUG: Child Output: 08:13:48 WARNING serial:261 Cleanup recv buffer before send: 0x1 0x5 0x0 0x3 0xff 0x0 0x7c 0x3a 0x1 0x5 0x0 0x4 0x0 0x0 0x8c 0xb 0x1 0x85 0x2 0xc3 0x51 0x3 0x3 0x0 0x4 0x0 0x3 0x45 0xe8
2026-09-09 08:13:50,034 | DEBUG: Module IO | Initialize program
2026-09-09 08:13:50,035 | DEBUG: Module IO | Start loop
2026-09-09 08:13:50,034 | DEBUG: Display GUI | Initialize program
2026-09-09 08:13:50,036 | DEBUG: Display GUI | Start Loop
2026-09-09 08:13:50,164 | DEBUG: Modbus Server | Initialize program
2026-09-09 08:13:50,164 | DEBUG: Modbus Server | Start Loop
2026-09-09 08:13:54,932 | DEBUG: Child Output: 08:13:54 WARNING serial:261 Cleanup recv buffer before send: 0x2 0x3 0x3 0x20 0x0 0x6 0xc4 0x75
2026-09-09 08:13:58,145 | DEBUG: Child Output: 08:13:58 WARNING serial:261 Cleanup recv buffer before send: 0x2 0x3 0x3 0x26 0x0 0x5a 0x24 0x4d
2026-09-09 08:14:04,358 | DEBUG: Child Output: 08:14:04 ERROR factory:331 unpack requires a buffer of 2 bytes
2026-09-09 08:14:04,361 | DEBUG: Child Output: 08:14:04 ERROR transaction:244 Modbus Error: [Input/Output] Unable to decode request
2026-09-09 08:14:04,361 | DEBUG: Child Output: Traceback (most recent call last):
2026-09-09 08:14:04,362 | DEBUG: Child Output: File "/usr/lib/python3/dist-packages/pymodbus/transaction.py", line 217, in execute
2026-09-09 08:14:04,362 | DEBUG: Child Output: self.client.framer.processIncomingPacket(
2026-09-09 08:14:04,362 | DEBUG: Child Output: File "/usr/lib/python3/dist-packages/pymodbus/framer/rtu_framer.py", line 239, in processIncomingPacket
2026-09-09 08:14:04,362 | DEBUG: Child Output: self._process(callback)
2026-09-09 08:14:04,362 | DEBUG: Child Output: File "/usr/lib/python3/dist-packages/pymodbus/framer/rtu_framer.py", line 331, in _process
2026-09-09 08:14:04,362 | DEBUG: Child Output: raise ModbusIOException("Unable to decode request")
2026-09-09 08:14:04,362 | DEBUG: Child Output: pymodbus.exceptions.ModbusIOException: Modbus Error: [Input/Output] Unable to decode request
2026-09-09 08:14:10,996 | DEBUG: Data Handler | Initialize Program
2026-09-09 08:14:10,996 | DEBUG: Data Handler | Open Existing Excel
2026-09-09 08:14:10,997 | DEBUG: Data Handler | Start Loop
2026-09-09 08:14:15,220 | DEBUG: Child Output: 08:14:15 WARNING serial:261 Cleanup recv buffer before send: 0x2 0x3 0x0 0x0 0x0 0x1d 0x85 0xf0
2026-09-09 08:14:25,582 | DEBUG: Child Output: 08:14:25 ERROR factory:331 unpack requires a buffer of 2 bytes
2026-09-09 08:14:25,583 | DEBUG: Child Output: 08:14:25 ERROR transaction:244 Modbus Error: [Input/Output] Unable to decode request
2026-09-09 08:14:25,584 | DEBUG: Child Output: Traceback (most recent call last):
2026-09-09 08:14:25,584 | DEBUG: Child Output: File "/usr/lib/python3/dist-packages/pymodbus/transaction.py", line 217, in execute
2026-09-09 08:14:25,584 | DEBUG: Child Output: self.client.framer.processIncomingPacket(
2026-09-09 08:14:25,584 | DEBUG: Child Output: File "/usr/lib/python3/dist-packages/pymodbus/framer/rtu_framer.py", line 239, in processIncomingPacket
2026-09-09 08:14:25,584 | DEBUG: Child Output: self._process(callback)
2026-09-09 08:14:25,584 | DEBUG: Child Output: File "/usr/lib/python3/dist-packages/pymodbus/framer/rtu_framer.py", line 331, in _process
2026-09-09 08:14:25,585 | DEBUG: Child Output: raise ModbusIOException("Unable to decode request")
2026-09-09 08:14:25,585 | DEBUG: Child Output: pymodbus.exceptions.ModbusIOException: Modbus Error: [Input/Output] Unable to decode request
2026-09-09 08:14:53,456 | DEBUG: Child Output: 08:14:53 ERROR factory:331 unpack requires a buffer of 2 bytes
2026-09-09 08:14:53,459 | DEBUG: Child Output: 08:14:53 ERROR transaction:244 Modbus Error: [Input/Output] Unable to decode request
2026-09-09 08:14:53,459 | DEBUG: Child Output: Traceback (most recent call last):
2026-09-09 08:14:53,459 | DEBUG: Child Output: File "/usr/lib/python3/dist-packages/pymodbus/transaction.py", line 217, in execute
2026-09-09 08:14:53,460 | DEBUG: Child Output: self.client.framer.processIncomingPacket(
2026-09-09 08:14:53,460 | DEBUG: Child Output: File "/usr/lib/python3/dist-packages/pymodbus/framer/rtu_framer.py", line 239, in processIncomingPacket
2026-09-09 08:14:53,460 | DEBUG: Child Output: self._process(callback)
2026-09-09 08:14:53,460 | DEBUG: Child Output: File "/usr/lib/python3/dist-packages/pymodbus/framer/rtu_framer.py", line 331, in _process
2026-09-09 08:14:53,461 | DEBUG: Child Output: raise ModbusIOException("Unable to decode request")
2026-09-09 08:14:53,461 | DEBUG: Child Output: pymodbus.exceptions.ModbusIOException: Modbus Error: [Input/Output] Unable to decode request
2026-09-09 08:15:10,978 | DEBUG: Child Output: 08:15:10 WARNING serial:261 Cleanup recv buffer before send: 0x2 0x3 0x3 0x26 0x0 0x5a 0x24 0x4d
2026-09-09 08:15:32,972 | DEBUG: Child Output: 08:15:32 WARNING serial:261 Cleanup recv buffer before send: 0x2 0x3 0x0 0x0 0x0 0x1d 0x85 0xf0
2026-09-09 08:15:40,327 | DEBUG: Child Output: 08:15:40 WARNING serial:261 Cleanup recv buffer before send: 0x2 0x3 0x3 0x26 0x0 0x5a 0x24 0x4d
2026-09-09 08:16:28,782 | DEBUG: Child Output: 08:16:28 WARNING serial:261 Cleanup recv buffer before send: 0x1 0x85 0x2 0xc3 0x51 0x3 0x3 0x0 0x4 0x0 0x3 0x45 0xe8
2026-09-09 08:16:32,242 | DEBUG: Child Output: 08:16:32 WARNING serial:261 Cleanup recv buffer before send: 0x2 0x3 0x0 0x2e 0x0 0x5 0xe5 0xf3
2026-09-09 08:16:35,698 | DEBUG: Child Output: 08:16:35 WARNING serial:261 Cleanup recv buffer before send: 0x2 0x3 0x3 0x26 0x0 0x5a 0x24 0x4d
2026-09-09 08:16:38,909 | DEBUG: Child Output: 08:16:38 WARNING serial:261 Cleanup recv buffer before send: 0x2 0x3 0x3 0x80 0x0 0x5a 0xc4 0x6e
2026-09-09 08:16:54,137 | DEBUG: Data Handler | Check Current Excel Size
2026-09-09 08:16:54,138 | DEBUG: Data Handler | Backup Excel
2026-09-09 08:16:54,138 | DEBUG: Data Handler | Try to save Excel from work stage
2026-09-09 08:16:54,138 | DEBUG: Data Handler | Excel Size 21556
2026-09-09 08:16:54,138 | DEBUG: Data Handler | Backup Size 18823
2026-09-09 08:16:54,138 | DEBUG: Data Handler | Save Success
2026-09-09 08:16:58,374 | DEBUG: Child Output: 08:16:58 WARNING serial:261 Cleanup recv buffer before send: 0x2 0x3 0x0 0x2e 0x0 0x5 0xe5 0xf3
2026-09-09 08:17:28,720 | DEBUG: Child Output: 08:17:28 WARNING serial:261 Cleanup recv buffer before send: 0x2 0x3 0x3 0x26 0x0 0x5a 0x24 0x4d
2026-09-09 08:17:57,365 | DEBUG: Child Output: 08:17:57 WARNING serial:261 Cleanup recv buffer before send: 0x2 0x3 0x3 0x26 0x0 0x5a 0x24 0x4d
2026-09-09 08:18:21,545 | DEBUG: Child Output: 08:18:21 WARNING serial:261 Cleanup recv buffer before send: 0x2 0x3 0x3 0x26 0x0 0x5a 0x24 0x4d
2026-09-09 08:18:43,276 | DEBUG: Child Output: 08:18:43 WARNING serial:261 Cleanup recv buffer before send: 0x1 0x85 0x2 0xc3 0x51 0x3 0x3 0x0 0x4 0x0 0x3 0x45 0xe8
2026-09-09 08:18:47,172 | DEBUG: Child Output: 08:18:47 WARNING serial:261 Cleanup recv buffer before send: 0x2 0x3 0x3 0x20 0x0 0x6 0xc4 0x75
2026-09-09 08:18:56,825 | DEBUG: Child Output: 08:18:56 ERROR factory:331 unpack requires a buffer of 2 bytes
2026-09-09 08:18:56,828 | DEBUG: Child Output: 08:18:56 ERROR transaction:244 Modbus Error: [Input/Output] Unable to decode request
2026-09-09 08:18:56,828 | DEBUG: Child Output: Traceback (most recent call last):
2026-09-09 08:18:56,828 | DEBUG: Child Output: File "/usr/lib/python3/dist-packages/pymodbus/transaction.py", line 217, in execute
2026-09-09 08:18:56,828 | DEBUG: Child Output: self.client.framer.processIncomingPacket(
2026-09-09 08:18:56,828 | DEBUG: Child Output: File "/usr/lib/python3/dist-packages/pymodbus/framer/rtu_framer.py", line 239, in processIncomingPacket
2026-09-09 08:18:56,828 | DEBUG: Child Output: self._process(callback)
2026-09-09 08:18:56,829 | DEBUG: Child Output: File "/usr/lib/python3/dist-packages/pymodbus/framer/rtu_framer.py", line 331, in _process
2026-09-09 08:18:56,829 | DEBUG: Child Output: raise ModbusIOException("Unable to decode request")
2026-09-09 08:18:56,829 | DEBUG: Child Output: pymodbus.exceptions.ModbusIOException: Modbus Error: [Input/Output] Unable to decode request
2026-09-09 08:19:36,064 | DEBUG: Child Output: 08:19:36 WARNING serial:261 Cleanup recv buffer before send: 0x2 0x3 0x3 0x20 0x0 0x6 0xc4 0x75
2026-09-09 08:19:36,525 | DEBUG: Child Output: 08:19:36 WARNING serial:261 Cleanup recv buffer before send: 0x2 0x3 0x3 0x26 0x0 0x5a 0x24 0x4d
2026-09-09 08:19:58,243 | DEBUG: Child Output: 08:19:58 WARNING serial:261 Cleanup recv buffer before send: 0x2 0x3 0x3 0x20 0x0 0x6 0xc4 0x75
2026-09-09 08:19:58,702 | DEBUG: Child Output: 08:19:58 WARNING serial:261 Cleanup recv buffer before send: 0x2 0x3 0x3 0x26 0x0 0x5a 0x24 0x4d
2026-09-09 08:20:16,934 | DEBUG: Data Handler | Check Current Excel Size
2026-09-09 08:20:16,934 | DEBUG: Data Handler | Backup Excel
2026-09-09 08:20:16,934 | DEBUG: Data Handler | Try to save Excel from work stage
2026-09-09 08:20:16,934 | DEBUG: Data Handler | Excel Size 24470
2026-09-09 08:20:16,934 | DEBUG: Data Handler | Backup Size 21556
2026-09-09 08:20:16,934 | DEBUG: Data Handler | Save Success
2026-09-09 08:20:21,153 | DEBUG: Child Output: 08:20:21 WARNING serial:261 Cleanup recv buffer before send: 0x1 0x85 0x2 0xc3 0x51 0x3 0x3 0x0 0x4 0x0 0x3 0x45 0xe8
2026-09-09 08:20:25,046 | DEBUG: Child Output: 08:20:25 WARNING serial:261 Cleanup recv buffer before send: 0x2 0x3 0x3 0x20 0x0 0x6 0xc4 0x75
2026-09-09 08:20:34,470 | DEBUG: Child Output: 08:20:34 ERROR factory:331 unpack requires a buffer of 2 bytes
2026-09-09 08:20:34,471 | DEBUG: Child Output: 08:20:34 ERROR transaction:244 Modbus Error: [Input/Output] Unable to decode request
2026-09-09 08:20:34,471 | DEBUG: Child Output: Traceback (most recent call last):
2026-09-09 08:20:34,471 | DEBUG: Child Output: File "/usr/lib/python3/dist-packages/pymodbus/transaction.py", line 217, in execute
2026-09-09 08:20:34,472 | DEBUG: Child Output: self.client.framer.processIncomingPacket(
2026-09-09 08:20:34,472 | DEBUG: Child Output: File "/usr/lib/python3/dist-packages/pymodbus/framer/rtu_framer.py", line 239, in processIncomingPacket
2026-09-09 08:20:34,472 | DEBUG: Child Output: self._process(callback)
2026-09-09 08:20:34,472 | DEBUG: Child Output: File "/usr/lib/python3/dist-packages/pymodbus/framer/rtu_framer.py", line 331, in _process
2026-09-09 08:20:34,472 | DEBUG: Child Output: raise ModbusIOException("Unable to decode request")
2026-09-09 08:20:34,472 | DEBUG: Child Output: pymodbus.exceptions.ModbusIOException: Modbus Error: [Input/Output] Unable to decode request
2026-09-09 08:20:50,039 | INFO: Restart triggered by watchdog freeze detection
2026-09-09 08:20:52,241 | INFO: Starting App
2026-09-09 08:20:52,248 | INFO: Initializing App
2026-09-09 08:20:52,249 | DEBUG: Start data_handler.py
2026-09-09 08:20:52,249 | DEBUG: Starting process: data_handler.py
2026-09-09 08:20:52,250 | DEBUG: Process data_handler.py started with PID: 6187
2026-09-09 08:20:52,250 | DEBUG: Sleep 1s then start module_IO.py
2026-09-09 08:20:53,250 | DEBUG: Starting process: module_IO.py
2026-09-09 08:20:53,252 | DEBUG: Process module_IO.py started with PID: 6206
2026-09-09 08:20:53,252 | DEBUG: Sleep 1s then start displayGUI.py
2026-09-09 08:20:54,253 | DEBUG: Starting process: displayGUI.py
2026-09-09 08:20:54,254 | DEBUG: Process displayGUI.py started with PID: 6210
2026-09-09 08:20:54,254 | DEBUG: Sleep 1s then start modbusTcpServer.py
2026-09-09 08:20:55,254 | DEBUG: Starting process: modbusTcpServer.py
2026-09-09 08:20:55,255 | DEBUG: Process modbusTcpServer.py started with PID: 6212
2026-09-09 08:20:55,256 | DEBUG: Init GUI Tkinter
2026-09-09 08:20:55,513 | DEBUG: Start Threads - Streaming + Watchdog
2026-09-09 08:20:55,515 | DEBUG: Module IO | Initialize program
2026-09-09 08:20:55,515 | DEBUG: Module IO | Start loop
2026-09-09 08:20:55,516 | DEBUG: Display GUI | Initialize program
2026-09-09 08:20:55,516 | DEBUG: Display GUI | Start Loop
2026-09-09 08:20:55,593 | DEBUG: Modbus Server | Initialize program
2026-09-09 08:20:55,594 | DEBUG: Modbus Server | Start Loop
2026-09-09 08:20:58,080 | DEBUG: Child Output: 08:20:58 WARNING serial:261 Cleanup recv buffer before send: 0x0 0x0 0x0 0x0 0x0 0x0 0x0 0x0 0x0 0x0 0x0 0x0 0x5 0x0 0x26 0x58 0x4d 0x98 0xde 0x0 0x0 0x0 0x0 0x0 0x0 0x0 0x0 0x0 0x0 0x0 0x0 0x0 0x0 0x0 0x0 0x0 0x0 0x0 0x0 0x0 0x0 0x0 0x0 0x0 0x0 0x0 0x0 0x0 0x0 0x0 0x0 0x0 0x0 0x0 0x0 0x0 0x0 0x0 0x0 0x0 0x0 0x0 0x0 0x0 0x0 0x0 0x0 0x0 0x0 0x0 0x0 0x0 0x0 0x0 0x0 0x0 0x0 0x0 0x0 0x0 0x0 0x6 0xcb 0xa 0x3 0x13 0x0 0x0 0x5 0x80 0x36
2026-09-09 08:21:01,560 | DEBUG: Child Output: 08:21:01 WARNING serial:261 Cleanup recv buffer before send: 0xa 0x3 0x13 0x0 0x0 0x5 0x80 0x36
2026-09-09 08:21:03,301 | DEBUG: Child Output: 08:21:03 WARNING serial:261 Cleanup recv buffer before send: 0x1 0x5 0x0 0x3 0xff 0x0 0x7c 0x3a 0x1 0x5 0x0 0x3 0xff 0x0 0x7c 0x3a
2026-09-09 08:21:04,657 | DEBUG: Data Handler | Initialize Program
2026-09-09 08:21:04,657 | DEBUG: Data Handler | Open Existing Excel
2026-09-09 08:21:04,657 | DEBUG: Data Handler | Start Loop
2026-09-09 08:21:08,871 | DEBUG: Child Output: 08:21:08 WARNING serial:261 Cleanup recv buffer before send: 0x1 0x3 0x0 0x0 0x0 0x4b 0x5 0xfd 0x1 0x3 0x96 0x58 0xc3 0x58 0x39 0x57 0xd8 0x99 0x4d 0x98 0xab 0x98 0x99 0x0 0x0 0x0 0x0 0x0 0x0 0x0 0x0 0x0 0x0 0x0 0x0 0x0 0x0 0x0 0x0 0x0 0x0 0x0 0x0 0x0 0x0 0x0 0x0 0x0 0x0 0x0 0x0 0x0 0x0 0x0 0x0 0x0 0x0 0x0 0x0 0x13 0x88 0x0 0x0 0x0 0x0 0x0 0x0 0x0 0x0 0x0 0x0 0x0 0x0 0x0 0x0 0x0 0x0 0x0 0x0 0x0 0x0 0x0 0x0 0x0 0x0 0x0 0x0 0x0 0x0 0x0 0x0 0x0 0x5 0x0 0x26 0x58 0x46 0x98 0xdb 0x0 0x0 0x0 0x0 0x0 0x0 0x0 0x0 0x0 0x0 0x0 0x0 0x0 0x0 0x0 0x0 0x0 0x0 0x0 0x0 0x0 0x0 0x0 0x0 0x0 0x0 0x0 0x0 0x0 0x0 0x0 0x0 0x0 0x0 0x0 0x0 0x0 0x0 0x0 0x0 0x0 0x0 0x0 0x0 0x0 0x0 0x0 0x0 0x0 0x88 0x83 0xa 0x3 0x13 0x0 0x0 0x5 0x80 0x36 0x2 0x3 0x3 0x20 0x0 0x6 0xc4 0x75
2026-09-09 08:21:09,331 | DEBUG: Child Output: 08:21:09 WARNING serial:261 Cleanup recv buffer before send: 0x2 0x3 0x3 0x26 0x0 0x5a 0x24 0x4d
2026-09-09 08:21:09,587 | DEBUG: Child Output: 08:21:09 WARNING serial:261 Cleanup recv buffer before send: 0x0 0x0 0x0 0x0 0x0 0x0 0x0 0x0 0x0 0x0 0x0 0x0 0x0 0x0 0x0 0x0 0x0 0x0 0x0 0x0 0x0 0x0 0x0 0x0 0x0 0x1d 0x7 0xa 0x3 0x13 0x0 0x0 0x5 0x80 0x36
2026-09-09 08:21:09,817 | DEBUG: Child Output: 08:21:09 WARNING serial:261 Cleanup recv buffer before send: 0x2 0x3 0x3 0x80 0x0 0x5a 0xc4 0x6e
2026-09-09 08:21:12,703 | DEBUG: Child Output: 08:21:12 WARNING serial:261 Cleanup recv buffer before send: 0xa 0x3 0x13 0x0 0x0 0x5 0x80 0x36
2026-09-09 08:21:14,408 | DEBUG: Child Output: 08:21:14 WARNING serial:261 Cleanup recv buffer before send: 0xa 0x3 0x13 0x0 0x0 0x5 0x80 0x36
2026-09-09 08:21:21,662 | DEBUG: Child Output: 08:21:21 WARNING serial:261 Cleanup recv buffer before send: 0x0 0x0 0x0 0x0 0x0 0x0 0x0 0x0 0x0 0x0 0x0 0x0 0x0 0x0 0x0 0x0 0x0 0x0 0x0 0x0 0x1a 0xd4 0xa 0x3 0x13 0x0 0x0 0x5 0x80 0x36 0x2 0x3 0x3 0x20 0x0 0x6 0xc4 0x75
2026-09-09 08:21:22,123 | DEBUG: Child Output: 08:21:22 WARNING serial:261 Cleanup recv buffer before send: 0x2 0x3 0x3 0x26 0x0 0x5a 0x24 0x4d
2026-09-09 08:21:22,815 | DEBUG: Child Output: 08:21:22 WARNING serial:261 Cleanup recv buffer before send: 0xa 0x3 0x13 0x0 0x0 0x5 0x80 0x36
2026-09-09 08:21:24,526 | DEBUG: Child Output: 08:21:24 WARNING serial:261 Cleanup recv buffer before send: 0xa 0x3 0x13 0x0 0x0 0x5 0x80 0x36
2026-09-09 08:21:27,944 | DEBUG: Child Output: 08:21:27 WARNING serial:261 Cleanup recv buffer before send: 0xa 0x3 0x13 0x0 0x0 0x5 0x80 0x36
2026-09-09 08:21:29,652 | DEBUG: Child Output: 08:21:29 WARNING serial:261 Cleanup recv buffer before send: 0xa 0x3 0x13 0x0 0x0 0x5 0x80 0x36
2026-09-09 08:21:37,322 | DEBUG: Child Output: 08:21:37 WARNING serial:261 Cleanup recv buffer before send: 0x0 0x0 0x0 0x0 0x0 0x0 0x0 0x0 0x0 0x0 0x0 0x0 0x0 0x0 0x0 0x0 0x0 0x0 0x0 0x0 0x0 0x0 0x0 0x0 0x0 0x0 0x0 0x0 0xb0 0x50 0xa 0x3 0x13 0x0 0x0 0x5 0x80 0x36 0x2 0x3 0x0 0x2e 0x0 0x5 0xe5 0xf3
2026-09-09 08:21:38,059 | DEBUG: Child Output: 08:21:38 WARNING serial:261 Cleanup recv buffer before send: 0x0 0x0 0x0 0x0 0x0 0x0 0x0 0x0 0x0 0x0 0x0 0x0 0x0 0x0 0x0 0x0 0x0 0x0 0x0 0x0 0x0 0x0 0x0 0x0 0x0 0xf3 0x2f 0xa 0x3 0x13 0x0 0x0 0x5 0x80 0x36
2026-09-09 08:21:38,289 | DEBUG: Child Output: 08:21:38 WARNING serial:261 Cleanup recv buffer before send: 0x2 0x3 0x3 0x26 0x0 0x5a 0x24 0x4d
2026-09-09 08:21:39,463 | DEBUG: Child Output: 08:21:39 WARNING serial:261 Cleanup recv buffer before send: 0xa 0x3 0x13 0x0 0x0 0x5 0x80 0x36
2026-09-09 08:21:40,669 | DEBUG: Child Output: 08:21:40 ERROR factory:331 unpack requires a buffer of 2 bytes
2026-09-09 08:21:40,671 | DEBUG: Child Output: 08:21:40 ERROR transaction:244 Modbus Error: [Input/Output] Unable to decode request
2026-09-09 08:21:40,671 | DEBUG: Child Output: Traceback (most recent call last):
2026-09-09 08:21:40,671 | DEBUG: Child Output: File "/usr/lib/python3/dist-packages/pymodbus/transaction.py", line 217, in execute
2026-09-09 08:21:40,671 | DEBUG: Child Output: self.client.framer.processIncomingPacket(
2026-09-09 08:21:40,671 | DEBUG: Child Output: File "/usr/lib/python3/dist-packages/pymodbus/framer/rtu_framer.py", line 239, in processIncomingPacket
2026-09-09 08:21:40,671 | DEBUG: Child Output: self._process(callback)
2026-09-09 08:21:40,671 | DEBUG: Child Output: File "/usr/lib/python3/dist-packages/pymodbus/framer/rtu_framer.py", line 331, in _process
2026-09-09 08:21:40,671 | DEBUG: Child Output: raise ModbusIOException("Unable to decode request")
2026-09-09 08:21:40,671 | DEBUG: Child Output: pymodbus.exceptions.ModbusIOException: Modbus Error: [Input/Output] Unable to decode request
2026-09-09 08:21:40,879 | DEBUG: Child Output: 08:21:40 WARNING serial:261 Cleanup recv buffer before send: 0xa 0x3 0x13 0x0 0x0 0x5 0x80 0x36
2026-09-09 08:21:42,585 | DEBUG: Child Output: 08:21:42 WARNING serial:261 Cleanup recv buffer before send: 0xa 0x3 0x13 0x0 0x0 0x5 0x80 0x36
2026-09-09 08:21:44,292 | DEBUG: Child Output: 08:21:44 WARNING serial:261 Cleanup recv buffer before send: 0xa 0x3 0x13 0x0 0x0 0x5 0x80 0x36
2026-09-09 08:21:52,010 | DEBUG: Child Output: 08:21:52 WARNING serial:261 Cleanup recv buffer before send: 0x5 0x80 0x36 0x2 0x3 0x0 0x2e 0x0 0x5 0xe5 0xf3
2026-09-09 08:21:52,984 | DEBUG: Child Output: 08:21:52 WARNING serial:261 Cleanup recv buffer before send: 0x2 0x3 0x3 0x26 0x0 0x5a 0x24 0x4d
2026-09-09 08:21:54,014 | DEBUG: Child Output: 08:21:54 WARNING serial:261 Cleanup recv buffer before send: 0x0 0x0 0x0 0x0 0x0 0x0 0x0 0x0 0x0 0x0 0x0 0x0 0x0 0x0 0x0 0x0 0x0 0x0 0x0 0x0 0x0 0x0 0x0 0x0 0x0 0x8b 0x6c 0xa 0x3 0x13 0x0 0x0 0x5 0x80 0x36
2026-09-09 08:21:54,242 | DEBUG: Child Output: 08:21:54 WARNING serial:261 Cleanup recv buffer before send: 0x2 0x3 0x3 0x80 0x0 0x5a 0xc4 0x6e
2026-09-09 08:21:59,033 | DEBUG: Child Output: 08:21:59 WARNING serial:261 Cleanup recv buffer before send: 0xa 0x3 0x13 0x0 0x0 0x5 0x80 0x36
2026-09-09 08:22:06,427 | DEBUG: Child Output: 08:22:06 WARNING serial:261 Cleanup recv buffer before send: 0x1 0x3 0x96 0x58 0xb6 0x58 0x17 0x57 0xc1 0x98 0xd7 0x98 0x1b 0x98 0x14 0x0 0x0 0x0 0x0 0x0 0x0 0x0 0x0 0x0 0x0 0x0 0x0 0x0 0x0 0x0 0x0 0x0 0x0 0x0 0x0 0x0 0x0 0x0 0x0 0x0 0x0 0x0 0x0 0x0 0x0 0x0 0x0 0x0 0x0 0x0 0x0 0x13 0x83 0x0 0x0 0x0 0x0 0x0 0x0 0x0 0x0 0x0 0x0 0x0 0x0 0x0 0x0 0x0 0x0 0x0 0x0 0x0 0x0 0x0 0x0 0x0 0x0 0x0 0x0 0x0 0x0 0x0 0x0 0x0 0x5 0x0 0x26 0x58 0x2f 0x98 0x57 0x0 0x0 0x0 0x0 0x0 0x0 0x0 0x0 0x0 0x0 0x0 0x0 0x0 0x0 0x0 0x0 0x0 0x0 0x0 0x0 0x0 0x0 0x0 0x0 0x0 0x0 0x0 0x0 0x0 0x0 0x0 0x0 0x0 0x0 0x0 0x0 0x0 0x0 0x0 0x0 0x0 0x0 0x0 0x0 0x0 0x0 0x0 0x0 0x0 0x35 0xb5 0xa 0x3 0x13 0x0 0x0 0x5 0x80 0x36 0x2 0x3 0x3 0x20 0x0 0x6 0xc4 0x75
2026-09-09 08:22:06,885 | DEBUG: Child Output: 08:22:06 WARNING serial:261 Cleanup recv buffer before send: 0x2 0x3 0x3 0x26 0x0 0x5a 0x24 0x4d
2026-09-09 08:22:07,116 | DEBUG: Child Output: 08:22:07 WARNING serial:261 Cleanup recv buffer before send: 0x0 0x0 0x0 0x0 0x0 0x0 0x0 0x0 0x0 0x0 0x0 0x0 0x0 0x0 0x0 0x0 0x0 0x0 0x0 0x0 0x0 0x0 0x0 0x0 0x0 0x9c 0xac 0xa 0x3 0x13 0x0 0x0 0x5 0x80 0x36
2026-09-09 08:22:07,345 | DEBUG: Child Output: 08:22:07 WARNING serial:261 Cleanup recv buffer before send: 0x2 0x3 0x3 0x80 0x0 0x5a 0xc4 0x6e
2026-09-09 08:22:08,374 | DEBUG: Child Output: 08:22:08 WARNING serial:261 Cleanup recv buffer before send: 0x0 0x0 0x0 0x0 0x0 0x0 0x0 0x0 0x0 0x0 0x0 0x0 0x0 0x0 0x0 0x0 0x0 0x0 0x0 0x0 0x0 0x0 0x0 0x0 0x0 0xbb 0xf4 0xa 0x3 0x13 0x0 0x0 0x5 0x80 0x36
2026-09-09 08:22:10,226 | DEBUG: Child Output: 08:22:10 WARNING serial:261 Cleanup recv buffer before send: 0xa 0x3 0x13 0x0 0x0 0x5 0x80 0x36
2026-09-09 08:22:11,937 | DEBUG: Child Output: 08:22:11 WARNING serial:261 Cleanup recv buffer before send: 0xa 0x3 0x13 0x0 0x0 0x5 0x80 0x36
2026-09-09 08:22:13,642 | DEBUG: Child Output: 08:22:13 WARNING serial:261 Cleanup recv buffer before send: 0xa 0x3 0x13 0x0 0x0 0x5 0x80 0x36 0x1 0x5 0x0 0x2 0x0 0x0 0x6c 0xa 0x1 0x5 0x0 0x2 0x0 0x0 0x6c 0xa
2026-09-09 08:22:14,934 | DEBUG: Child Output: 08:22:14 WARNING serial:261 Cleanup recv buffer before send: 0x2 0x3 0x0 0x0 0x0 0x1d 0x85 0xf0
2026-09-09 08:22:22,105 | DEBUG: Child Output: 08:22:22 WARNING serial:261 Cleanup recv buffer before send: 0x0 0x0 0x0 0x0 0x0 0x0 0x0 0x0 0x0 0x0 0x0 0x0 0x0 0x0 0x0 0x0 0x0 0x0 0x0 0x0 0x0 0x0 0x0 0x0 0x0 0x5d 0x74 0xa 0x3 0x13 0x0 0x0 0x5 0x80 0x36 0x2 0x3 0x3 0x20 0x0 0x6 0xc4 0x75 0x1 0x3 0x0 0x0 0x0 0x4b 0x5 0xfd 0x1 0x3 0x96 0x58 0xc5 0x58 0x2b 0x57 0xce 0x99 0x56 0x98 0x97 0xcd 0xa 0x3 0x13 0x0 0x0 0x5 0x80 0x36
2026-09-09 08:22:24,413 | DEBUG: Child Output: 08:22:24 WARNING serial:261 Cleanup recv buffer before send: 0xa 0x3 0x13 0x0 0x0 0x5 0x80 0x36
2026-09-09 08:22:35,355 | DEBUG: Child Output: 08:22:35 WARNING serial:261 Cleanup recv buffer before send: 0x1 0x3 0x96 0x58 0xa3 0x58 0x9 0x57 0xb2 0x99 0x17 0x98 0x4e 0x98 0x69 0x0 0x0 0x0 0x0 0x0 0x0 0x0 0x0 0x0 0x0 0x0 0x0 0x0 0x0 0x0 0x0 0x0 0x0 0x0 0x0 0x0 0x0 0x0 0x0 0x0 0x0 0x0 0x0 0x0 0x0 0x0 0x0 0x0 0x0 0x0 0x0 0x13 0x83 0x0 0x0 0x0 0x0 0x0 0x0 0x0 0x0 0x0 0x0 0x0 0x0 0x0 0x0 0x0 0x0 0x0 0x0 0x0 0x0 0x0 0x0 0x0 0x0 0x0 0x0 0x0 0x0 0x0 0x0 0x0 0x5 0x0 0x26 0x58 0x1f 0x98 0x9a 0x0 0x0 0x0 0x0 0x0 0x0 0x0 0x0 0x0 0x0 0x0 0x0 0x0 0x0 0x0 0x0 0x0 0x0 0x0 0x0 0x0 0x0 0x0 0x0 0x0 0x0 0x0 0x0 0x0 0x0 0x0 0x0 0x0 0x0 0x0 0x0 0x0 0x0 0x0 0x0 0x0 0x0 0x0 0x0 0x0 0x0 0x0 0x0 0x0 0x40 0xd0 0xa 0x3 0x13 0x0 0x0 0x5 0x80 0x36 0x2 0x3 0x3 0x20 0x0 0x6 0xc4 0x75
2026-09-09 08:22:35,814 | DEBUG: Child Output: 08:22:35 WARNING serial:261 Cleanup recv buffer before send: 0x2 0x3 0x3 0x26 0x0 0x5a 0x24 0x4d
2026-09-09 08:22:37,955 | DEBUG: Child Output: 08:22:37 WARNING serial:261 Cleanup recv buffer before send: 0xa 0x3 0x13 0x0 0x0 0x5 0x80 0x36
2026-09-09 08:22:39,658 | DEBUG: Child Output: 08:22:39 WARNING serial:261 Cleanup recv buffer before send: 0xa 0x3 0x13 0x0 0x0 0x5 0x80 0x36
2026-09-09 08:22:41,364 | DEBUG: Child Output: 08:22:41 WARNING serial:261 Cleanup recv buffer before send: 0xa 0x3 0x13 0x0 0x0 0x5 0x80 0x36
2026-09-09 08:22:43,071 | DEBUG: Child Output: 08:22:43 WARNING serial:261 Cleanup recv buffer before send: 0xa 0x3 0x13 0x0 0x0 0x5 0x80 0x36
2026-09-09 08:22:50,792 | DEBUG: Child Output: 08:22:50 WARNING serial:261 Cleanup recv buffer before send: 0x1 0x5 0x0 0x3 0xff 0x0 0x7c 0x3a 0x1 0x5 0x0 0x3 0xff 0x0 0x7c 0x3a 0x1 0x5 0x0 0x4 0x0 0x0 0x8c 0xb 0x1 0x85 0x2 0xc3 0x51 0x3 0x3 0x0 0x4 0x0 0x3 0x45 0xe8 0x1 0x3 0x0 0x0 0x0 0x4b 0x5 0xfd 0x1 0x3 0x96 0x58 0x96 0x57 0xf8 0x57 0x99 0x99 0x1c 0x98 0x47 0x98 0x6d 0x0 0x0 0x0 0x0 0x0 0x0 0x0 0x0 0x0 0x0 0x0 0x0 0x0 0x0 0x0 0x0 0x0 0x0 0x0 0x0 0x0 0x0 0x0 0x0 0x0 0x0 0x0 0x0 0x0 0x0 0x0 0x0 0x0 0x0 0x0 0x0 0x13 0x83 0x0 0x0 0x0 0x0 0x0 0x0 0x0 0x0 0x0 0x0 0x0 0x0 0x0 0x0 0x0 0x0 0x0 0x0 0x0 0x0 0x0 0x0 0x0 0x0 0x0 0x0 0x0 0x0 0x0 0x0 0x5 0x80 0x36 0x2 0x3 0x0 0x2e 0x0 0x5 0xe5 0xf3
2026-09-09 08:22:51,768 | DEBUG: Child Output: 08:22:51 WARNING serial:261 Cleanup recv buffer before send: 0x2 0x3 0x3 0x26 0x0 0x5a 0x24 0x4d
2026-09-09 08:22:52,798 | DEBUG: Child Output: 08:22:52 WARNING serial:261 Cleanup recv buffer before send: 0x0 0x0 0x0 0x0 0x0 0x0 0x0 0x0 0x0 0x0 0x0 0x0 0x0 0x0 0x0 0x0 0x0 0x0 0x0 0x0 0x0 0x0 0x0 0x0 0x0 0xd1 0xcc 0xa 0x3 0x13 0x0 0x0 0x5 0x80 0x36
2026-09-09 08:22:54,261 | DEBUG: Child Output: 08:22:54 WARNING serial:261 Cleanup recv buffer before send: 0x0 0x0 0x0 0x0 0x0 0x0 0x0 0x0 0x0 0x0 0x0 0x0 0x0 0x0 0x0 0x0 0x0 0x0 0x0 0x0 0x0 0x0 0x0 0x0 0x0 0xf7 0xfc 0xa 0x3 0x13 0x0 0x0 0x5 0x80 0x36
2026-09-09 08:22:56,109 | DEBUG: Child Output: 08:22:56 WARNING serial:261 Cleanup recv buffer before send: 0xa 0x3 0x13 0x0 0x0 0x5 0x80 0x36
2026-09-09 08:22:57,816 | DEBUG: Child Output: 08:22:57 WARNING serial:261 Cleanup recv buffer before send: 0xa 0x3 0x13 0x0 0x0 0x5 0x80 0x36
2026-09-09 08:23:01,552 | DEBUG: Child Output: 08:23:01 WARNING serial:261 Cleanup recv buffer before send: 0xa 0x3 0x13 0x0 0x0 0x5 0x80 0x36
2026-09-09 08:23:09,053 | DEBUG: Child Output: 08:23:09 WARNING serial:261 Cleanup recv buffer before send: 0x0 0x0 0x0 0x0 0x0 0x0 0x0 0x0 0x0 0x0 0x0 0x0 0x0 0x0 0x0 0x0 0x0 0x0 0x0 0x0 0x0 0x0 0x0 0x0 0x0 0x55 0xcf 0xa 0x3 0x13 0x0 0x0 0x5 0x80 0x36 0x2 0x3 0x3 0x20 0x0 0x6 0xc4 0x75 0x1 0x3 0x0 0x0 0x0 0x4b 0x5 0xfd 0x1 0x3 0x96 0x58 0xc8 0x58 0x36 0x57 0xc8 0x99 0x57 0x98 0x94 0xf 0xa 0x3 0x13 0x0 0x0 0x5 0x80 0x36
2026-09-09 08:23:11,356 | DEBUG: Child Output: 08:23:11 WARNING serial:261 Cleanup recv buffer before send: 0xa 0x3 0x13 0x0 0x0 0x5 0x80 0x36
2026-09-09 08:23:13,066 | DEBUG: Child Output: 08:23:13 WARNING serial:261 Cleanup recv buffer before send: 0xa 0x3 0x13 0x0 0x0 0x5 0x80 0x36
2026-09-09 08:23:23,452 | DEBUG: Child Output: 08:23:23 WARNING serial:261 Cleanup recv buffer before send: 0xa 0x3 0x13 0x0 0x0 0x5 0x80 0x36
2026-09-09 08:23:25,170 | DEBUG: Child Output: 08:23:25 WARNING serial:261 Cleanup recv buffer before send: 0xa 0x3 0x13 0x0 0x0 0x5 0x80 0x36
2026-09-09 08:23:26,877 | DEBUG: Child Output: 08:23:26 WARNING serial:261 Cleanup recv buffer before send: 0xa 0x3 0x13 0x0 0x0 0x5 0x80 0x36
2026-09-09 08:23:30,293 | DEBUG: Child Output: 08:23:30 WARNING serial:261 Cleanup recv buffer before send: 0xa 0x3 0x13 0x0 0x0 0x5 0x80 0x36
2026-09-09 08:23:38,005 | DEBUG: Child Output: 08:23:38 WARNING serial:261 Cleanup recv buffer before send: 0x1 0x5 0x0 0x3 0xff 0x0 0x7c 0x3a 0x1 0x5 0x0 0x3 0xff 0x0 0x7c 0x3a 0x1 0x5 0x0 0x4 0x0 0x0 0x8c 0xb 0x1 0x85 0x2 0xc3 0x51 0x3 0x3 0x0 0x4 0x0 0x3 0x45 0xe8 0x1 0x3 0x0 0x0 0x0 0x4b 0x5 0xfd 0x1 0x3 0x96 0x58 0xa8 0x58 0x1e 0x57 0xb5 0x99 0x9 0x98 0x57 0x98 0x6a 0x0 0x0 0x0 0x0 0x0 0x0 0x0 0x0 0x0 0x0 0x0 0x0 0x0 0x0 0x0 0x0 0x0 0x0 0x0 0x0 0x0 0x0 0x0 0x0 0x0 0x0 0x0 0x0 0x0 0x0 0x0 0x0 0x0 0x0 0x0 0x0 0x13 0x86 0x0 0x0 0x0 0x0 0x0 0x0 0x0 0x0 0x0 0x0 0x0 0x0 0x0 0x0 0x0 0x0 0x0 0x0 0x0 0x0 0x0 0x0 0x0 0x0 0x0 0x0 0x0 0x0 0x0 0x0 0x5 0x80 0x36 0x2 0x3 0x0 0x2e 0x0 0x5 0xe5 0xf3
2026-09-09 08:23:38,235 | DEBUG: Child Output: 08:23:38 WARNING serial:261 Cleanup recv buffer before send: 0x1 0x3 0x0 0x0 0x0 0x4b 0x5 0xfd 0x1 0x3 0x96 0x58 0x7d 0x57 0xe1 0x57 0x90 0x99 0x2e 0x98 0x6d 0x98 0x76 0x0 0x0 0x0 0x0 0x0 0x0 0x0 0x0 0x0 0x0 0x0 0x0 0x0 0x0 0x0 0x0 0x0 0x0 0x0 0x0 0x0 0x0 0x0 0x0 0x0 0x0 0x0 0x0 0x0 0x0 0x0 0x0 0x0 0x0 0x0 0x0 0x13 0x85 0x0 0x0 0x0 0x0 0x0 0x0 0x0 0x0 0x0 0x0 0x0 0x0 0x0 0x0 0x0 0x0 0x0 0x0 0x0 0x0 0x0 0x0 0x0 0x0 0x0 0x0 0x0 0x0 0x0 0x0 0x0 0x5 0x0 0x26 0x57 0xfa 0x98 0xb0 0x0 0x0 0x0 0x0 0x0 0x0 0x0 0x0 0x0 0x0 0x0 0x0 0x0 0x0 0x0 0x0 0x0 0x0 0x0 0x0 0x0 0x0 0x0 0x0 0x0 0x0 0x0 0x0 0x0 0x0 0x0 0x0 0x0 0x0 0x0 0x0 0x0 0x0 0x0 0x0 0x0 0x0 0x0 0x0 0x0 0x0 0x0 0x0 0x0 0x0 0x0 0x0 0x0 0x0 0x0 0x0 0x0 0x0 0x0 0x0 0x0 0x0 0x97 0x7
2026-09-09 08:23:40,050 | DEBUG: Child Output: 08:23:40 WARNING serial:261 Cleanup recv buffer before send: 0xa 0x3 0x13 0x0 0x0 0x5 0x80 0x36
2026-09-09 08:23:43,469 | DEBUG: Child Output: 08:23:43 WARNING serial:261 Cleanup recv buffer before send: 0xa 0x3 0x13 0x0 0x0 0x5 0x80 0x36
2026-09-09 08:23:48,600 | DEBUG: Child Output: 08:23:48 WARNING serial:261 Cleanup recv buffer before send: 0xa 0x3 0x13 0x0 0x0 0x5 0x80 0x36 0x1 0x5 0x0 0x0 0xff 0x0 0x8c 0x3a 0x1 0x5 0x0 0x0 0xff 0x0 0x8c 0x3a
2026-09-09 08:23:54,099 | DEBUG: Child Output: 08:23:54 WARNING serial:261 Cleanup recv buffer before send: 0x0 0x0 0x0 0x0 0x0 0x0 0x0 0x0 0x0 0x0 0x0 0x0 0x0 0x0 0x0 0x0 0x0 0x0 0x0 0x0 0x0 0x0 0x0 0x0 0x0 0x0 0x0 0x0 0x0 0x0 0x0 0x0 0x0 0x0 0x0 0x0 0xb3 0x63 0xa 0x3 0x13 0x0 0x0 0x5 0x80 0x36 0x2 0x3 0x3 0x20 0x0 0x6 0xc4 0x75
2026-09-09 08:23:54,559 | DEBUG: Child Output: 08:23:54 WARNING serial:261 Cleanup recv buffer before send: 0x2 0x3 0x3 0x26 0x0 0x5a 0x24 0x4d
2026-09-09 08:23:54,790 | DEBUG: Child Output: 08:23:54 WARNING serial:261 Cleanup recv buffer before send: 0x1 0x3 0x0 0x0 0x0 0x4b 0x5 0xfd
2026-09-09 08:23:54,998 | DEBUG: Child Output: 08:23:54 WARNING serial:261 Cleanup recv buffer before send: 0xa 0x3 0x13 0x0 0x0 0x5 0x80 0x36
2026-09-09 08:23:55,230 | DEBUG: Child Output: 08:23:55 WARNING serial:261 Cleanup recv buffer before send: 0x2 0x3 0x3 0x80 0x0 0x5a 0xc4 0x6e
2026-09-09 08:23:56,433 | DEBUG: Child Output: 08:23:56 WARNING serial:261 Cleanup recv buffer before send: 0xa 0x3 0x13 0x0 0x0 0x5 0x80 0x36
2026-09-09 08:23:58,139 | DEBUG: Child Output: 08:23:58 WARNING serial:261 Cleanup recv buffer before send: 0xa 0x3 0x13 0x0 0x0 0x5 0x80 0x36
2026-09-09 08:23:59,852 | DEBUG: Child Output: 08:23:59 WARNING serial:261 Cleanup recv buffer before send: 0xa 0x3 0x13 0x0 0x0 0x5 0x80 0x36
2026-09-09 08:24:03,827 | DEBUG: Data Handler | Check Current Excel Size
2026-09-09 08:24:03,827 | DEBUG: Data Handler | Backup Excel
2026-09-09 08:24:03,827 | DEBUG: Data Handler | Try to save Excel from work stage
2026-09-09 08:24:03,827 | DEBUG: Data Handler | Excel Size 29259
2026-09-09 08:24:03,827 | DEBUG: Data Handler | Backup Size 24470
2026-09-09 08:24:03,827 | DEBUG: Data Handler | Save Success
2026-09-09 08:24:08,046 | DEBUG: Child Output: 08:24:08 WARNING serial:261 Cleanup recv buffer before send: 0x1 0x3 0x96 0x58 0x92 0x57 0xfa 0x57 0x9e 0x98 0xff 0x98 0x33 0x98 0x79 0x0 0x0 0x0 0x0 0x0 0x0 0x0 0x0 0x0 0x0 0x0 0x0 0x0 0x0 0x0 0x0 0x0 0x0 0x0 0x0 0x0 0x0 0x0 0x0 0x0 0x0 0x0 0x0 0x0 0x0 0x0 0x0 0x0 0x0 0x0 0x0 0x13 0x86 0x0 0x0 0x0 0x0 0x0 0x0 0x0 0x0 0x0 0x0 0x0 0x0 0x0 0x0 0x0 0x0 0x0 0x0 0x0 0x0 0x0 0x0 0x0 0x0 0x0 0x0 0x0 0x0 0x0 0x0 0x0 0x5 0x0 0x26 0x58 0xe 0x98 0x8e 0x0 0x0 0x0 0x0 0x0 0x0 0x0 0x0 0x0 0x0 0x0 0x0 0x0 0x0 0x0 0x0 0x0 0x0 0x0 0x0 0x0 0x0 0x0 0x0 0x0 0x0 0x0 0x0 0x0 0x0 0x0 0x0 0x0 0x0 0x0 0x0 0x0 0xb 0xa 0x3 0x13 0x0 0x0 0x5 0x80 0x36
2026-09-09 08:24:08,277 | DEBUG: Child Output: 08:24:08 WARNING serial:261 Cleanup recv buffer before send: 0x2 0x3 0x3 0x26 0x0 0x5a 0x24 0x4d
2026-09-09 08:24:09,191 | DEBUG: Child Output: 08:24:09 WARNING serial:261 Cleanup recv buffer before send: 0x1 0x3 0x0 0x0 0x0 0x4b 0x5 0xfd
2026-09-09 08:24:09,400 | DEBUG: Child Output: 08:24:09 WARNING serial:261 Cleanup recv buffer before send: 0xe5 0x98 0x68 0x0 0x0 0x0 0x0 0x0 0x0 0x0 0x0 0x0 0x0 0x0 0x0 0x0 0x0 0x0 0x0 0x0 0x0 0x0 0x0 0x0 0x0 0x0 0x0 0x0 0x0 0x0 0x0 0x0 0x0 0x0 0x0 0x0 0x0 0x0 0x0 0x0 0x0 0x0 0x0 0x0 0x0 0x0 0x0 0x0 0x0 0x0 0x0 0x0 0x0 0x0 0x0 0x0 0x0 0x0 0x0 0x0 0x0 0x0 0x0 0x0 0x0 0xf0 0xae 0xa 0x3 0x13 0x0 0x0 0x5 0x80 0x36
2026-09-09 08:24:10,632 | DEBUG: Child Output: 08:24:10 ERROR factory:331 unpack requires a buffer of 2 bytes
2026-09-09 08:24:10,632 | DEBUG: Child Output: 08:24:10 ERROR transaction:244 Modbus Error: [Input/Output] Unable to decode request
2026-09-09 08:24:10,632 | DEBUG: Child Output: Traceback (most recent call last):
2026-09-09 08:24:10,632 | DEBUG: Child Output: File "/usr/lib/python3/dist-packages/pymodbus/transaction.py", line 217, in execute
2026-09-09 08:24:10,632 | DEBUG: Child Output: self.client.framer.processIncomingPacket(
2026-09-09 08:24:10,632 | DEBUG: Child Output: File "/usr/lib/python3/dist-packages/pymodbus/framer/rtu_framer.py", line 239, in processIncomingPacket
2026-09-09 08:24:10,632 | DEBUG: Child Output: self._process(callback)
2026-09-09 08:24:10,632 | DEBUG: Child Output: File "/usr/lib/python3/dist-packages/pymodbus/framer/rtu_framer.py", line 331, in _process
2026-09-09 08:24:10,632 | DEBUG: Child Output: raise ModbusIOException("Unable to decode request")
2026-09-09 08:24:10,633 | DEBUG: Child Output: pymodbus.exceptions.ModbusIOException: Modbus Error: [Input/Output] Unable to decode request
2026-09-09 08:24:10,840 | DEBUG: Child Output: 08:24:10 WARNING serial:261 Cleanup recv buffer before send: 0xa 0x3 0x13 0x0 0x0 0x5 0x80 0x36
2026-09-09 08:24:12,548 | DEBUG: Child Output: 08:24:12 WARNING serial:261 Cleanup recv buffer before send: 0xa 0x3 0x13 0x0 0x0 0x5 0x80 0x36
2026-09-09 08:24:14,259 | DEBUG: Child Output: 08:24:14 WARNING serial:261 Cleanup recv buffer before send: 0xa 0x3 0x13 0x0 0x0 0x5 0x80 0x36
2026-09-09 08:24:23,877 | DEBUG: Child Output: 08:24:23 WARNING serial:261 Cleanup recv buffer before send: 0x0 0x0 0x0 0x0 0x0 0x0 0x0 0x0 0x0 0x0 0x0 0x0 0x0 0x0 0x0 0x0 0x0 0x0 0x0 0x0 0x0 0x0 0x0 0x0 0x0 0x0 0x0 0x0 0x0 0x0 0x0 0x0 0x0 0x0 0x0 0x0 0xdf 0xa1 0xa 0x3 0x13 0x0 0x0 0x5 0x80 0x36 0x2 0x3 0x3 0x20 0x0 0x6 0xc4 0x75
2026-09-09 08:24:24,337 | DEBUG: Child Output: 08:24:24 WARNING serial:261 Cleanup recv buffer before send: 0x2 0x3 0x3 0x26 0x0 0x5a 0x24 0x4d
2026-09-09 08:24:24,638 | DEBUG: Child Output: 08:24:24 WARNING serial:261 Cleanup recv buffer before send: 0x0 0x0 0x0 0x0 0x0 0x0 0x0 0x0 0x0 0x0 0x0 0x0 0x0 0x0 0x0 0x0 0x0 0x0 0x0 0x0 0x0 0x0 0x0 0x0 0x0 0x7c 0xf3 0xa 0x3 0x13 0x0 0x0 0x5 0x80 0x36
2026-09-09 08:24:24,868 | DEBUG: Child Output: 08:24:24 WARNING serial:261 Cleanup recv buffer before send: 0x2 0x3 0x3 0x80 0x0 0x5a 0xc4 0x6e
2026-09-09 08:24:26,042 | DEBUG: Child Output: 08:24:26 WARNING serial:261 Cleanup recv buffer before send: 0xa 0x3 0x13 0x0 0x0 0x5 0x80 0x36
2026-09-09 08:24:27,752 | DEBUG: Child Output: 08:24:27 WARNING serial:261 Cleanup recv buffer before send: 0xa 0x3 0x13 0x0 0x0 0x5 0x80 0x36
2026-09-09 08:24:29,460 | DEBUG: Child Output: 08:24:29 WARNING serial:261 Cleanup recv buffer before send: 0xa 0x3 0x13 0x0 0x0 0x5 0x80 0x36
2026-09-09 08:24:33,198 | DEBUG: Child Output: 08:24:33 WARNING serial:261 Cleanup recv buffer before send: 0xa 0x3 0x13 0x0 0x0 0x5 0x80 0x36
2026-09-09 08:24:40,700 | DEBUG: Child Output: 08:24:40 WARNING serial:261 Cleanup recv buffer before send: 0x0 0x0 0x0 0x0 0x0 0x0 0x0 0x0 0x0 0x0 0x0 0x0 0x0 0x0 0x0 0x0 0x0 0x0 0x0 0x0 0x0 0x0 0x0 0x0 0x0 0x96 0x25 0xa 0x3 0x13 0x0 0x0 0x5 0x80 0x36 0x2 0x3 0x3 0x20 0x0 0x6 0xc4 0x75 0x1 0x3 0x0 0x0 0x0 0x4b 0x5 0xfd 0x1 0x3 0x96 0x58 0x3e 0x57 0xef 0x57 0xb3 0x98 0xfc 0x98 0x29 0xd3 0xa 0x3 0x13 0x0 0x0 0x5 0x80 0x36
2026-09-09 08:24:41,605 | DEBUG: Child Output: 08:24:41 WARNING serial:261 Cleanup recv buffer before send: 0x0 0x0 0x0 0x0 0x0 0x0 0x0 0x0 0x0 0x0 0x0 0x0 0x0 0x0 0x0 0x0 0x0 0x0 0x0 0x0 0x0 0x0 0x0 0x0 0x0 0x5 0xa5 0xa 0x3 0x13 0x0 0x0 0x5 0x80 0x36
2026-09-09 08:24:43,005 | DEBUG: Child Output: 08:24:43 WARNING serial:261 Cleanup recv buffer before send: 0xa 0x3 0x13 0x0 0x0 0x5 0x80 0x36
2026-09-09 08:24:44,712 | DEBUG: Child Output: 08:24:44 WARNING serial:261 Cleanup recv buffer before send: 0xa 0x3 0x13 0x0 0x0 0x5 0x80 0x36
2026-09-09 08:24:48,446 | DEBUG: Child Output: 08:24:48 WARNING serial:261 Cleanup recv buffer before send: 0xa 0x3 0x13 0x0 0x0 0x5 0x80 0x36 0x1 0x5 0x0 0x2 0x0 0x0 0x6c 0xa 0x1 0x5 0x0 0x2 0x0 0x0 0x6c 0xa
2026-09-09 08:24:49,731 | DEBUG: Child Output: 08:24:49 WARNING serial:261 Cleanup recv buffer before send: 0x2 0x3 0x0 0x0 0x0 0x1d 0x85 0xf0
2026-09-09 08:24:56,913 | DEBUG: Child Output: 08:24:56 WARNING serial:261 Cleanup recv buffer before send: 0x0 0x0 0x0 0x0 0x0 0x0 0x0 0x0 0x0 0x0 0x0 0x0 0x0 0x0 0x0 0x0 0x0 0x0 0x0 0x0 0x0 0x0 0x0 0x0 0x0 0xad 0x2 0xa 0x3 0x13 0x0 0x0 0x5 0x80 0x36 0x2 0x3 0x3 0x20 0x0 0x6 0xc4 0x75 0x1 0x3 0x0 0x0 0x0 0x4b 0x5 0xfd 0x1 0x3 0x96 0x58 0xa9 0x58 0x1e 0x57 0x9e 0x99 0x18 0x98 0x3d 0x61 0xa 0x3 0x13 0x0 0x0 0x5 0x80 0x36
2026-09-09 08:24:59,942 | DEBUG: Child Output: 08:24:59 WARNING serial:261 Cleanup recv buffer before send: 0xa 0x3 0x13 0x0 0x0 0x5 0x80 0x36
2026-09-09 08:25:01,646 | DEBUG: Child Output: 08:25:01 WARNING serial:261 Cleanup recv buffer before send: 0xa 0x3 0x13 0x0 0x0 0x5 0x80 0x36
2026-09-09 08:25:03,356 | DEBUG: Child Output: 08:25:03 WARNING serial:261 Cleanup recv buffer before send: 0xa 0x3 0x13 0x0 0x0 0x5 0x80 0x36
2026-09-09 08:25:10,607 | DEBUG: Child Output: 08:25:10 WARNING serial:261 Cleanup recv buffer before send: 0x1 0x3 0x0 0x0 0x0 0x4b 0x5 0xfd 0x1 0x3 0x96 0x58 0x7d 0x57 0xee 0x57 0x8d 0x98 0xdc 0x98 0x4 0x98 0x22 0x0 0x0 0x0 0x0 0x0 0x0 0x0 0x0 0x0 0x0 0x0 0x0 0x0 0x0 0x0 0x0 0x0 0x0 0x0 0x0 0x0 0x0 0x0 0x0 0x0 0x0 0x0 0x0 0x0 0x0 0x0 0x0 0x0 0x0 0x0 0x0 0x13 0x8b 0x0 0x0 0x0 0x0 0x0 0x0 0x0 0x0 0x0 0x0 0x0 0x0 0x0 0x0 0x0 0x0 0x0 0x0 0x0 0x0 0x0 0x0 0x0 0x0 0x0 0x0 0x0 0x0 0x0 0x0 0x0 0x5 0x0 0x26 0x57 0xfd 0x98 0x56 0x0 0x0 0x0 0x0 0x0 0x0 0x0 0x0 0x0 0x0 0x0 0x0 0x0 0x0 0x0 0x0 0x0 0x0 0x0 0x0 0x0 0x0 0x0 0x0 0x0 0x0 0x0 0x0 0x0 0x0 0x0 0x0 0x0 0x0 0x0 0x0 0x0 0x0 0x0 0x0 0x0 0x0 0x0 0x0 0x0 0x0 0x0 0x0 0x0 0xf4 0x2e 0xa 0x3 0x13 0x0 0x0 0x5 0x80 0x36 0x2 0x3 0x3 0x20 0x0 0x6 0xc4 0x75
2026-09-09 08:25:11,065 | DEBUG: Child Output: 08:25:11 WARNING serial:261 Cleanup recv buffer before send: 0x2 0x3 0x3 0x26 0x0 0x5a 0x24 0x4d
2026-09-09 08:25:11,314 | DEBUG: Child Output: 08:25:11 WARNING serial:261 Cleanup recv buffer before send: 0x0 0x0 0x0 0x0 0x0 0x0 0x0 0x0 0x0 0x0 0x0 0x0 0x0 0x0 0x0 0x0 0x0 0x0 0x0 0x0 0x0 0x0 0x0 0x0 0x0 0xcc 0xce 0xa 0x3 0x13 0x0 0x0 0x5 0x80 0x36
2026-09-09 08:25:11,545 | DEBUG: Child Output: 08:25:11 WARNING serial:261 Cleanup recv buffer before send: 0x2 0x3 0x3 0x80 0x0 0x5a 0xc4 0x6e
2026-09-09 08:25:14,428 | DEBUG: Child Output: 08:25:14 WARNING serial:261 Cleanup recv buffer before send: 0xa 0x3 0x13 0x0 0x0 0x5 0x80 0x36
2026-09-09 08:25:19,873 | DEBUG: Child Output: 08:25:19 WARNING serial:261 Cleanup recv buffer before send: 0xa 0x3 0x13 0x0 0x0 0x5 0x80 0x36
2026-09-09 08:25:27,370 | DEBUG: Child Output: 08:25:27 WARNING serial:261 Cleanup recv buffer before send: 0x0 0x0 0x0 0x0 0x0 0x0 0x0 0x0 0x0 0x0 0x0 0x0 0x0 0x0 0x0 0x0 0x0 0x0 0x0 0x0 0x0 0x0 0x0 0x0 0x0 0xfd 0xcb 0xa 0x3 0x13 0x0 0x0 0x5 0x80 0x36 0x2 0x3 0x3 0x20 0x0 0x6 0xc4 0x75 0x1 0x3 0x0 0x0 0x0 0x4b 0x5 0xfd 0x1 0x3 0x96 0x58 0x7d 0x57 0xf0 0x57 0x8a 0x99 0xb 0x98 0x3a 0xf9 0xa 0x3 0x13 0x0 0x0 0x5 0x80 0x36
2026-09-09 08:25:28,274 | DEBUG: Child Output: 08:25:28 WARNING serial:261 Cleanup recv buffer before send: 0x0 0x0 0x0 0x0 0x0 0x0 0x0 0x0 0x0 0x0 0x0 0x0 0x0 0x0 0x0 0x0 0x0 0x0 0x0 0x0 0x0 0x0 0x0 0x0 0x0 0x2d 0xd4 0xa 0x3 0x13 0x0 0x0 0x5 0x80 0x36
2026-09-09 08:25:29,676 | DEBUG: Child Output: 08:25:29 WARNING serial:261 Cleanup recv buffer before send: 0xa 0x3 0x13 0x0 0x0 0x5 0x80 0x36
2026-09-09 08:25:31,388 | DEBUG: Child Output: 08:25:31 WARNING serial:261 Cleanup recv buffer before send: 0xa 0x3 0x13 0x0 0x0 0x5 0x80 0x36
2026-09-09 08:25:40,645 | DEBUG: Child Output: 08:25:40 WARNING serial:261 Cleanup recv buffer before send: 0x1 0x3 0x96 0x58 0x8b 0x58 0x2 0x57 0x97 0x98 0xf3 0x98 0x46 0x98 0x38 0x0 0x0 0x0 0x0 0x0 0x0 0x0 0x0 0x0 0x0 0x0 0x0 0x0 0x0 0x0 0x0 0x0 0x0 0x0 0x0 0x0 0x0 0x0 0x0 0x0 0x0 0x0 0x0 0x0 0x0 0x0 0x0 0x0 0x0 0x0 0x0 0x13 0x8b 0x0 0x0 0x0 0x0 0x0 0x0 0x0 0x0 0x0 0x0 0x0 0x0 0x0 0x0 0x0 0x0 0x0 0x0 0x0 0x0 0x0 0x0 0x0 0x0 0x0 0x0 0x0 0x0 0x0 0x0 0x0 0x5 0x0 0x26 0x58 0xc 0x98 0x7b 0x0 0x0 0x0 0x0 0x0 0x0 0x0 0x0 0x0 0x0 0x0 0x0 0x0 0x0 0x0 0x0 0x0 0x0 0x0 0x0 0x0 0x0 0x0 0x0 0x0 0x0 0x0 0x0 0x0 0x0 0x0 0x0 0x0 0x0 0x0 0x0 0x0 0x0 0x0 0x0 0x0 0x0 0x0 0x0 0x0 0x0 0x0 0x0 0x0 0x41 0xaa 0xa 0x3 0x13 0x0 0x0 0x5 0x80 0x36 0x2 0x3 0x3 0x20 0x0 0x6 0xc4 0x75
2026-09-09 08:25:41,105 | DEBUG: Child Output: 08:25:41 WARNING serial:261 Cleanup recv buffer before send: 0x2 0x3 0x3 0x26 0x0 0x5a 0x24 0x4d
2026-09-09 08:25:43,245 | DEBUG: Child Output: 08:25:43 WARNING serial:261 Cleanup recv buffer before send: 0xa 0x3 0x13 0x0 0x0 0x5 0x80 0x36
2026-09-09 08:25:44,955 | DEBUG: Child Output: 08:25:44 WARNING serial:261 Cleanup recv buffer before send: 0xa 0x3 0x13 0x0 0x0 0x5 0x80 0x36
2026-09-09 08:25:46,661 | DEBUG: Child Output: 08:25:46 WARNING serial:261 Cleanup recv buffer before send: 0xa 0x3 0x13 0x0 0x0 0x5 0x80 0x36
2026-09-09 08:25:48,364 | DEBUG: Child Output: 08:25:48 WARNING serial:261 Cleanup recv buffer before send: 0xa 0x3 0x13 0x0 0x0 0x5 0x80 0x36
2026-09-09 08:25:57,989 | DEBUG: Child Output: 08:25:57 WARNING serial:261 Cleanup recv buffer before send: 0xa 0x3 0x13 0x0 0x0 0x5 0x80 0x36 0x2 0x3 0x0 0x0 0x0 0x1d 0x85 0xf0 0x1 0x3 0x0 0x0 0x0 0x4b 0x5 0xfd 0x1 0x3 0x96 0x58 0x74 0x57 0xe7 0x57 0x7e 0x98 0xc7 0x98 0x14 0x98 0x16 0x0 0x0 0x0 0x0 0x0 0x0 0x0 0x0 0x0 0x0 0x0 0x0 0x0 0x0 0x0 0x0 0x0 0x0 0x0 0x0 0x0 0x0 0x0 0x0 0x0 0x0 0x0 0x0 0x0 0x0 0x0 0x0 0x0 0x0 0x0 0x0 0x13 0x89 0x0 0x0 0x0 0x0 0x0 0x0 0x0 0x0 0x0 0x0 0x0 0x0 0x0 0x0 0x0 0x0 0x0 0x0 0x0 0x0 0x0 0x0 0x0 0x0 0x0 0x0 0x0 0x0 0x0 0x0 0x0 0x5 0x0 0x26 0x57 0xf3 0x98 0x50 0x0 0x0 0x0 0x0 0x0 0x0 0x0 0x0 0x0 0x0 0x0 0x0 0x0 0x0 0x0 0x0 0x0 0x0 0x0 0x0 0x0 0x0 0x0 0x0 0x0 0x0 0x0 0x0 0x0 0x0 0x0 0x0 0x0 0x0 0x0 0x0 0x0 0x0 0x0 0x0 0x0 0x0 0x0 0x0 0x0 0x0 0x0 0x0 0x0 0x55 0x16 0xa 0x3 0x13 0x0 0x0 0x5 0x80 0x36 0x2 0x3 0x3 0x20 0x0 0x6 0xc4 0x75
2026-09-09 08:25:58,451 | DEBUG: Child Output: 08:25:58 WARNING serial:261 Cleanup recv buffer before send: 0x2 0x3 0x3 0x26 0x0 0x5a 0x24 0x4d
2026-09-09 08:25:58,682 | DEBUG: Child Output: 08:25:58 WARNING serial:261 Cleanup recv buffer before send: 0x1 0x3 0x0 0x0 0x0 0x4b 0x5 0xfd
2026-09-09 08:25:59,128 | DEBUG: Child Output: 08:25:59 WARNING serial:261 Cleanup recv buffer before send: 0x2 0x3 0x3 0x80 0x0 0x5a 0xc4 0x6e
2026-09-09 08:26:00,331 | DEBUG: Child Output: 08:26:00 WARNING serial:261 Cleanup recv buffer before send: 0xa 0x3 0x13 0x0 0x0 0x5 0x80 0x36
2026-09-09 08:26:02,037 | DEBUG: Child Output: 08:26:02 WARNING serial:261 Cleanup recv buffer before send: 0xa 0x3 0x13 0x0 0x0 0x5 0x80 0x36
2026-09-09 08:26:11,139 | DEBUG: Child Output: 08:26:11 WARNING serial:261 Cleanup recv buffer before send: 0x0 0x0 0x0 0x0 0x0 0x0 0x0 0x0 0x0 0x0 0x0 0x0 0xd9 0x81 0xa 0x3 0x13 0x0 0x0 0x5 0x80 0x36 0x2 0x3 0x3 0x20 0x0 0x6 0xc4 0x75
2026-09-09 08:26:11,598 | DEBUG: Child Output: 08:26:11 WARNING serial:261 Cleanup recv buffer before send: 0x2 0x3 0x3 0x26 0x0 0x5a 0x24 0x4d
2026-09-09 08:26:13,742 | DEBUG: Child Output: 08:26:13 WARNING serial:261 Cleanup recv buffer before send: 0xa 0x3 0x13 0x0 0x0 0x5 0x80 0x36
2026-09-09 08:26:15,444 | DEBUG: Child Output: 08:26:15 WARNING serial:261 Cleanup recv buffer before send: 0xa 0x3 0x13 0x0 0x0 0x5 0x80 0x36
2026-09-09 08:26:17,151 | DEBUG: Child Output: 08:26:17 WARNING serial:261 Cleanup recv buffer before send: 0xa 0x3 0x13 0x0 0x0 0x5 0x80 0x36
2026-09-09 08:26:18,861 | DEBUG: Child Output: 08:26:18 WARNING serial:261 Cleanup recv buffer before send: 0xa 0x3 0x13 0x0 0x0 0x5 0x80 0x36
2026-09-09 08:26:26,588 | DEBUG: Child Output: 08:26:26 WARNING serial:261 Cleanup recv buffer before send: 0x5 0x80 0x36 0x2 0x3 0x0 0x2e 0x0 0x5 0xe5 0xf3
2026-09-09 08:26:27,560 | DEBUG: Child Output: 08:26:27 WARNING serial:261 Cleanup recv buffer before send: 0x2 0x3 0x3 0x26 0x0 0x5a 0x24 0x4d
2026-09-09 08:26:28,732 | DEBUG: Child Output: 08:26:28 WARNING serial:261 Cleanup recv buffer before send: 0xa 0x3 0x13 0x0 0x0 0x5 0x80 0x36
2026-09-09 08:26:29,940 | DEBUG: Child Output: 08:26:29 ERROR factory:331 unpack requires a buffer of 2 bytes
2026-09-09 08:26:29,940 | DEBUG: Child Output: 08:26:29 ERROR transaction:244 Modbus Error: [Input/Output] Unable to decode request
2026-09-09 08:26:29,940 | DEBUG: Child Output: Traceback (most recent call last):
2026-09-09 08:26:29,940 | DEBUG: Child Output: File "/usr/lib/python3/dist-packages/pymodbus/transaction.py", line 217, in execute
2026-09-09 08:26:29,940 | DEBUG: Child Output: self.client.framer.processIncomingPacket(
2026-09-09 08:26:29,941 | DEBUG: Child Output: File "/usr/lib/python3/dist-packages/pymodbus/framer/rtu_framer.py", line 239, in processIncomingPacket
2026-09-09 08:26:29,941 | DEBUG: Child Output: self._process(callback)
2026-09-09 08:26:29,941 | DEBUG: Child Output: File "/usr/lib/python3/dist-packages/pymodbus/framer/rtu_framer.py", line 331, in _process
2026-09-09 08:26:29,941 | DEBUG: Child Output: raise ModbusIOException("Unable to decode request")
2026-09-09 08:26:29,941 | DEBUG: Child Output: pymodbus.exceptions.ModbusIOException: Modbus Error: [Input/Output] Unable to decode request
2026-09-09 08:26:30,148 | DEBUG: Child Output: 08:26:30 WARNING serial:261 Cleanup recv buffer before send: 0xa 0x3 0x13 0x0 0x0 0x5 0x80 0x36
2026-09-09 08:26:41,287 | DEBUG: Child Output: 08:26:41 WARNING serial:261 Cleanup recv buffer before send: 0x1 0x5 0x0 0x3 0xff 0x0 0x7c 0x3a 0x1 0x5 0x0 0x3 0xff 0x0 0x7c 0x3a 0x1 0x5 0x0 0x4 0x0 0x0 0x8c 0xb 0x1 0x85 0x2 0xc3 0x51 0x3 0x3 0x0 0x4 0x0 0x3 0x45 0xe8 0x1 0x3 0x0 0x0 0x0 0x4b 0x5 0xfd 0x1 0x3 0x96 0x58 0x96 0x58 0x17 0x57 0xaa 0x99 0x20 0x98 0x59 0x98 0x56 0x0 0x0 0x0 0x0 0x0 0x0 0x0 0x0 0x0 0x0 0x0 0x0 0x0 0x0 0x0 0x0 0x0 0x0 0x0 0x0 0x0 0x0 0x0 0x0 0x0 0x0 0x0 0x0 0x0 0x0 0x0 0x0 0x0 0x0 0x0 0x0 0x13 0x84 0x0 0x0 0x0 0x0 0x0 0x0 0x0 0x0 0x0 0x0 0x0 0x0 0x0 0x0 0x0 0x0 0x0 0x0 0x0 0x0 0x0 0x0 0x0 0x0 0x0 0x0 0x0 0x0 0x0 0x0 0x5 0x80 0x36 0x2 0x3 0x0 0x2e 0x0 0x5 0xe5 0xf3
2026-09-09 08:26:42,260 | DEBUG: Child Output: 08:26:42 WARNING serial:261 Cleanup recv buffer before send: 0x2 0x3 0x3 0x26 0x0 0x5a 0x24 0x4d
2026-09-09 08:26:43,290 | DEBUG: Child Output: 08:26:43 WARNING serial:261 Cleanup recv buffer before send: 0x0 0x0 0x0 0x0 0x0 0x0 0x0 0x0 0x0 0x0 0x0 0x0 0x0 0x0 0x0 0x0 0x0 0x0 0x0 0x0 0x0 0x0 0x0 0x0 0x0 0x6b 0x1c 0xa 0x3 0x13 0x0 0x0 0x5 0x80 0x36
2026-09-09 08:26:44,749 | DEBUG: Child Output: 08:26:44 WARNING serial:261 Cleanup recv buffer before send: 0x0 0x0 0x0 0x0 0x0 0x0 0x0 0x0 0x0 0x0 0x0 0x0 0x0 0x0 0x0 0x0 0x0 0x0 0x0 0x0 0x0 0x0 0x0 0x0 0x0 0xc8 0x36 0xa 0x3 0x13 0x0 0x0 0x5 0x80 0x36
2026-09-09 08:26:46,596 | DEBUG: Child Output: 08:26:46 WARNING serial:261 Cleanup recv buffer before send: 0xa 0x3 0x13 0x0 0x0 0x5 0x80 0x36
2026-09-09 08:26:48,305 | DEBUG: Child Output: 08:26:48 WARNING serial:261 Cleanup recv buffer before send: 0xa 0x3 0x13 0x0 0x0 0x5 0x80 0x36
2026-09-09 08:26:55,518 | INFO: Restart triggered by watchdog freeze detection
2026-09-09 08:26:57,724 | INFO: Starting App
2026-09-09 08:26:57,731 | INFO: Initializing App
2026-09-09 08:26:57,731 | DEBUG: Start data_handler.py
2026-09-09 08:26:57,731 | DEBUG: Starting process: data_handler.py
2026-09-09 08:26:57,733 | DEBUG: Process data_handler.py started with PID: 7421
2026-09-09 08:26:57,733 | DEBUG: Sleep 1s then start module_IO.py
2026-09-09 08:26:58,733 | DEBUG: Starting process: module_IO.py
2026-09-09 08:26:58,735 | DEBUG: Process module_IO.py started with PID: 7440
2026-09-09 08:26:58,735 | DEBUG: Sleep 1s then start displayGUI.py
2026-09-09 08:26:59,735 | DEBUG: Starting process: displayGUI.py
2026-09-09 08:26:59,737 | DEBUG: Process displayGUI.py started with PID: 7444
2026-09-09 08:26:59,737 | DEBUG: Sleep 1s then start modbusTcpServer.py
2026-09-09 08:27:00,737 | DEBUG: Starting process: modbusTcpServer.py
2026-09-09 08:27:00,739 | DEBUG: Process modbusTcpServer.py started with PID: 7446
2026-09-09 08:27:00,739 | DEBUG: Init GUI Tkinter
2026-09-09 08:27:00,996 | DEBUG: Start Threads - Streaming + Watchdog
2026-09-09 08:27:00,997 | DEBUG: Module IO | Initialize program
2026-09-09 08:27:00,998 | DEBUG: Module IO | Start loop
2026-09-09 08:27:00,998 | DEBUG: Display GUI | Initialize program
2026-09-09 08:27:00,998 | DEBUG: Display GUI | Start Loop
2026-09-09 08:27:01,076 | DEBUG: Modbus Server | Initialize program
2026-09-09 08:27:01,076 | DEBUG: Modbus Server | Start Loop
2026-09-09 08:27:01,114 | DEBUG: Child Output: 08:27:01 WARNING serial:261 Cleanup recv buffer before send: 0x0 0x0 0x0 0x0 0x0 0x0 0x0 0x0 0x0 0x0 0x0 0x0 0x0 0x0 0x0 0x0 0x0 0x0 0x0 0x0 0x0 0x0 0x0 0x0 0x0 0xc8 0x3f 0xa 0x3 0x13 0x0 0x0 0x5 0x80 0x36
2026-09-09 08:27:02,517 | DEBUG: Child Output: 08:27:02 WARNING serial:261 Cleanup recv buffer before send: 0xa 0x3 0x13 0x0 0x0 0x5 0x80 0x36
2026-09-09 08:27:04,229 | DEBUG: Child Output: 08:27:04 WARNING serial:261 Cleanup recv buffer before send: 0xa 0x3 0x13 0x0 0x0 0x5 0x80 0x36
2026-09-09 08:27:05,935 | DEBUG: Child Output: 08:27:05 WARNING serial:261 Cleanup recv buffer before send: 0xa 0x3 0x13 0x0 0x0 0x5 0x80 0x36
2026-09-09 08:27:10,626 | DEBUG: Data Handler | Initialize Program
2026-09-09 08:27:10,626 | DEBUG: Data Handler | Open Existing Excel
2026-09-09 08:27:10,626 | DEBUG: Data Handler | Start Loop
2026-09-09 08:27:14,858 | DEBUG: Child Output: 08:27:14 WARNING serial:261 Cleanup recv buffer before send: 0x0 0x0 0x0 0x0 0x0 0x0 0x0 0x0 0x0 0x0 0x0 0x0 0x0 0x0 0x0 0x0 0x0 0x0 0x0 0x0 0x0 0x0 0x0 0x0 0x0 0x7 0x52 0xa 0x3 0x13 0x0 0x0 0x5 0x80 0x36 0x2 0x3 0x0 0x2e 0x0 0x5 0xe5 0xf3 0x1 0x3 0x0 0x0 0x0 0x4b 0x5 0xfd 0x1 0x3 0x96 0x58 0x89 0x58 0x8 0x57 0xa5 0x99 0x22 0x98 0x4e 0x8d 0xa 0x3 0x13 0x0 0x0 0x5 0x80 0x36 0x2 0x3 0x3 0x26 0x0 0x5a 0x24 0x4d
2026-09-09 08:27:15,545 | DEBUG: Child Output: 08:27:15 WARNING serial:261 Cleanup recv buffer before send: 0x1 0x3 0x0 0x0 0x0 0x4b 0x5 0xfd
2026-09-09 08:27:15,896 | DEBUG: Child Output: 08:27:15 WARNING serial:261 Cleanup recv buffer before send: 0xa 0x3 0x13 0x0 0x0 0x5 0x80 0x36
2026-09-09 08:27:16,122 | DEBUG: Child Output: 08:27:16 WARNING serial:261 Cleanup recv buffer before send: 0x6 0x5a 0xc4 0x6e
2026-09-09 08:27:17,298 | DEBUG: Child Output: 08:27:17 WARNING serial:261 Cleanup recv buffer before send: 0xa 0x3 0x13 0x0 0x0 0x5 0x80 0x36
2026-09-09 08:27:19,011 | DEBUG: Child Output: 08:27:19 WARNING serial:261 Cleanup recv buffer before send: 0xa 0x3 0x13 0x0 0x0 0x5 0x80 0x36
2026-09-09 08:27:20,718 | DEBUG: Child Output: 08:27:20 WARNING serial:261 Cleanup recv buffer before send: 0xa 0x3 0x13 0x0 0x0 0x5 0x80 0x36 0x1 0x5 0x0 0x0 0xff 0x0 0x8c 0x3a 0x1 0x5 0x0 0x0 0xff 0x0 0x8c 0x3a
2026-09-09 08:27:23,571 | DEBUG: Child Output: 08:27:23 WARNING serial:261 Cleanup recv buffer before send: 0x0 0x0 0x0 0x0 0x0 0x0 0x0 0x0 0x0 0x0 0x0 0x0 0x0 0x0 0x0 0x0 0x0 0x0 0x0 0x0 0x0 0x0 0x0 0x0 0x0 0xa7 0x56 0xa 0x3 0x13 0x0 0x0 0x5 0x80 0x36
2026-09-09 08:27:31,216 | DEBUG: Child Output: 08:27:31 WARNING serial:261 Cleanup recv buffer before send: 0x0 0x0 0x0 0x0 0x0 0x0 0x0 0x0 0x0 0x0 0x0 0x0 0x0 0x0 0x0 0x0 0x0 0x0 0x0 0x0 0x0 0x0 0x0 0x0 0x0 0xc1 0x91 0xa 0x3 0x13 0x0 0x0 0x5 0x80 0x36 0x2 0x3 0x0 0x2e 0x0 0x5 0xe5 0xf3 0x1 0x3 0x0 0x0 0x0 0x4b 0x5 0xfd 0x1 0x3 0x96 0x58 0x5c 0x57 0xdf 0x57 0x6b 0x98 0xbd 0x97 0xe2 0xcc 0xa 0x3 0x13 0x0 0x0 0x5 0x80 0x36 0x2 0x3 0x3 0x26 0x0 0x5a 0x24 0x4d
2026-09-09 08:27:34,135 | DEBUG: Child Output: 08:27:34 WARNING serial:261 Cleanup recv buffer before send: 0x0 0x0 0x0 0x0 0x0 0x0 0x0 0x0 0x0 0x0 0x0 0x0 0x0 0x0 0x0 0x0 0x0 0x0 0x0 0x0 0x0 0x0 0x0 0x0 0x0 0xd7 0xe5 0xa 0x3 0x13 0x0 0x0 0x5 0x80 0x36
2026-09-09 08:27:35,452 | DEBUG: Child Output: 08:27:35 ERROR factory:331 unpack requires a buffer of 2 bytes
2026-09-09 08:27:35,454 | DEBUG: Child Output: 08:27:35 ERROR transaction:244 Modbus Error: [Input/Output] Unable to decode request
2026-09-09 08:27:35,454 | DEBUG: Child Output: Traceback (most recent call last):
2026-09-09 08:27:35,454 | DEBUG: Child Output: File "/usr/lib/python3/dist-packages/pymodbus/transaction.py", line 217, in execute
2026-09-09 08:27:35,455 | DEBUG: Child Output: self.client.framer.processIncomingPacket(
2026-09-09 08:27:35,455 | DEBUG: Child Output: File "/usr/lib/python3/dist-packages/pymodbus/framer/rtu_framer.py", line 239, in processIncomingPacket
2026-09-09 08:27:35,455 | DEBUG: Child Output: self._process(callback)
2026-09-09 08:27:35,455 | DEBUG: Child Output: File "/usr/lib/python3/dist-packages/pymodbus/framer/rtu_framer.py", line 331, in _process
2026-09-09 08:27:35,455 | DEBUG: Child Output: raise ModbusIOException("Unable to decode request")
2026-09-09 08:27:35,455 | DEBUG: Child Output: pymodbus.exceptions.ModbusIOException: Modbus Error: [Input/Output] Unable to decode request
2026-09-09 08:27:35,662 | DEBUG: Child Output: 08:27:35 WARNING serial:261 Cleanup recv buffer before send: 0xa 0x3 0x13 0x0 0x0 0x5 0x80 0x36
2026-09-09 08:27:37,367 | DEBUG: Child Output: 08:27:37 WARNING serial:261 Cleanup recv buffer before send: 0xa 0x3 0x13 0x0 0x0 0x5 0x80 0x36
2026-09-09 08:27:39,072 | DEBUG: Child Output: 08:27:39 WARNING serial:261 Cleanup recv buffer before send: 0xa 0x3 0x13 0x0 0x0 0x5 0x80 0x36
2026-09-09 08:27:46,806 | DEBUG: Child Output: 08:27:46 WARNING serial:261 Cleanup recv buffer before send: 0x1 0x5 0x0 0x3 0xff 0x0 0x7c 0x3a 0x1 0x5 0x0 0x3 0xff 0x0 0x7c 0x3a 0x1 0x5 0x0 0x4 0x0 0x0 0x8c 0xb 0x1 0x85 0x2 0xc3 0x51 0x3 0x3 0x0 0x4 0x0 0x3 0x45 0xe8 0x1 0x3 0x0 0x0 0x0 0x4b 0x5 0xfd 0x1 0x3 0x96 0x58 0x5c 0x57 0xde 0x57 0x8a 0x98 0xdf 0x98 0x34 0x98 0x2b 0x0 0x0 0x0 0x0 0x0 0x0 0x0 0x0 0x0 0x0 0x0 0x0 0x0 0x0 0x0 0x0 0x0 0x0 0x0 0x0 0x0 0x0 0x0 0x0 0x0 0x0 0x0 0x0 0x0 0x0 0x0 0x0 0x0 0x0 0x0 0x0 0x13 0x86 0x0 0x0 0x0 0x0 0x0 0x0 0x0 0x0 0x0 0x0 0x0 0x0 0x0 0x0 0x0 0x0 0x0 0x0 0x0 0x0 0x0 0x0 0x0 0x0 0x0 0x0 0x0 0x0 0x0 0x0 0x5 0x80 0x36 0x2 0x3 0x0 0x2e 0x0 0x5 0xe5 0xf3
2026-09-09 08:27:47,781 | DEBUG: Child Output: 08:27:47 WARNING serial:261 Cleanup recv buffer before send: 0x2 0x3 0x3 0x26 0x0 0x5a 0x24 0x4d
2026-09-09 08:27:48,811 | DEBUG: Child Output: 08:27:48 WARNING serial:261 Cleanup recv buffer before send: 0x0 0x0 0x0 0x0 0x0 0x0 0x0 0x0 0x0 0x0 0x0 0x0 0x0 0x0 0x0 0x0 0x0 0x0 0x0 0x0 0x0 0x0 0x0 0x0 0x0 0xff 0x42 0xa 0x3 0x13 0x0 0x0 0x5 0x80 0x36
2026-09-09 08:27:50,270 | DEBUG: Child Output: 08:27:50 WARNING serial:261 Cleanup recv buffer before send: 0x0 0x0 0x0 0x0 0x0 0x0 0x0 0x0 0x0 0x0 0x0 0x0 0x0 0x0 0x0 0x0 0x0 0x0 0x0 0x0 0x0 0x0 0x0 0x0 0x0 0x4c 0xb5 0xa 0x3 0x13 0x0 0x0 0x5 0x80 0x36
2026-09-09 08:27:52,121 | DEBUG: Child Output: 08:27:52 WARNING serial:261 Cleanup recv buffer before send: 0xa 0x3 0x13 0x0 0x0 0x5 0x80 0x36
2026-09-09 08:27:53,828 | DEBUG: Child Output: 08:27:53 WARNING serial:261 Cleanup recv buffer before send: 0xa 0x3 0x13 0x0 0x0 0x5 0x80 0x36
2026-09-09 08:28:01,709 | DEBUG: Child Output: 08:28:01 WARNING serial:261 Cleanup recv buffer before send: 0x2 0x3 0x0 0x0 0x0 0x1d 0x85 0xf0 0x1 0x3 0x0 0x0 0x0 0x4b 0x5 0xfd 0x1 0x3 0x96 0x58 0x77 0x57 0xe7 0x57 0x97 0x98 0xfc 0x98 0x5f 0x98 0x50 0x0 0x0 0x0 0x0 0x0 0x0 0x0 0x0 0x0 0x0 0x0 0x0 0x0 0x0 0x0 0x0 0x0 0x0 0x0 0x0 0x0 0x0 0x0 0x0 0x0 0x0 0x0 0x0 0x0 0x0 0x0 0x0 0x0 0x0 0x0 0x0 0x13 0x86 0x0 0x0 0x0 0x0 0x0 0x0 0x0 0x0 0x0 0x0 0x0 0x0 0x0 0x0 0x0 0x0 0x0 0x0 0x0 0x0 0x0 0x0 0x0 0x0 0x0 0x0 0x0 0x0 0x0 0x0 0x0 0x5 0x0 0x26 0x57 0xfc 0x98 0x8e 0x0 0x0 0x0 0x0 0x0 0x0 0x0 0x0 0x0 0x0 0x0 0x0 0x0 0x0 0x0 0x0 0x0 0x0 0x0 0x0 0x0 0x0 0x0 0x0 0x0 0x0 0x0 0x0 0x0 0x0 0x0 0x0 0x0 0x0 0x0 0x0 0x0 0x0 0x0 0x0 0x0 0x0 0x0 0x0 0x0 0x0 0x0 0x0 0x0 0x5d 0xe6 0xa 0x3 0x13 0x0 0x0 0x5 0x80 0x36 0x2 0x3 0x3 0x20 0x0 0x6 0xc4 0x75
2026-09-09 08:28:02,168 | DEBUG: Child Output: 08:28:02 WARNING serial:261 Cleanup recv buffer before send: 0x2 0x3 0x3 0x26 0x0 0x5a 0x24 0x4d
2026-09-09 08:28:02,440 | DEBUG: Child Output: 08:28:02 WARNING serial:261 Cleanup recv buffer before send: 0x0 0x0 0x0 0x0 0x0 0x0 0x0 0x0 0x0 0x0 0x0 0x0 0x0 0x0 0x0 0x0 0x0 0x0 0x0 0x0 0x0 0x0 0x0 0x0 0x0 0x54 0xf4 0xa 0x3 0x13 0x0 0x0 0x5 0x80 0x36
2026-09-09 08:28:02,670 | DEBUG: Child Output: 08:28:02 WARNING serial:261 Cleanup recv buffer before send: 0x2 0x3 0x3 0x80 0x0 0x5a 0xc4 0x6e
2026-09-09 08:28:03,698 | DEBUG: Child Output: 08:28:03 WARNING serial:261 Cleanup recv buffer before send: 0x0 0x0 0x0 0x0 0x0 0x0 0x0 0x0 0x0 0x0 0x0 0x0 0x0 0x0 0x0 0x0 0x0 0x0 0x0 0x0 0x0 0x0 0x0 0x0 0x0 0xa5 0xcd 0xa 0x3 0x13 0x0 0x0 0x5 0x80 0x36
2026-09-09 08:28:05,548 | DEBUG: Child Output: 08:28:05 WARNING serial:261 Cleanup recv buffer before send: 0xa 0x3 0x13 0x0 0x0 0x5 0x80 0x36
2026-09-09 08:28:07,256 | DEBUG: Child Output: 08:28:07 WARNING serial:261 Cleanup recv buffer before send: 0xa 0x3 0x13 0x0 0x0 0x5 0x80 0x36
2026-09-09 08:28:08,967 | DEBUG: Child Output: 08:28:08 WARNING serial:261 Cleanup recv buffer before send: 0xa 0x3 0x13 0x0 0x0 0x5 0x80 0x36 0x1 0x5 0x0 0x2 0x0 0x0 0x6c 0xa 0x1 0x5 0x0 0x2 0x0 0x0 0x6c 0xa
2026-09-09 08:28:10,254 | DEBUG: Child Output: 08:28:10 WARNING serial:261 Cleanup recv buffer before send: 0x2 0x3 0x0 0x0 0x0 0x1d 0x85 0xf0
2026-09-09 08:28:17,445 | DEBUG: Child Output: 08:28:17 WARNING serial:261 Cleanup recv buffer before send: 0x0 0x0 0x0 0x0 0x0 0x0 0x0 0x0 0x0 0x0 0x0 0x0 0x0 0x0 0x0 0x0 0x0 0x0 0x0 0x0 0x0 0x0 0x0 0x0 0x0 0xed 0x60 0xa 0x3 0x13 0x0 0x0 0x5 0x80 0x36 0x2 0x3 0x3 0x20 0x0 0x6 0xc4 0x75 0x1 0x3 0x0 0x0 0x0 0x4b 0x5 0xfd 0x1 0x3 0x96 0x58 0x63 0x57 0xd9 0x57 0x73 0x98 0xc0 0x97 0xf3 0xe0 0xa 0x3 0x13 0x0 0x0 0x5 0x80 0x36
2026-09-09 08:28:19,743 | DEBUG: Child Output: 08:28:19 WARNING serial:261 Cleanup recv buffer before send: 0xa 0x3 0x13 0x0 0x0 0x5 0x80 0x36
2026-09-09 08:28:21,455 | DEBUG: Child Output: 08:28:21 WARNING serial:261 Cleanup recv buffer before send: 0xa 0x3 0x13 0x0 0x0 0x5 0x80 0x36
2026-09-09 08:28:30,749 | DEBUG: Child Output: 08:28:30 WARNING serial:261 Cleanup recv buffer before send: 0x0 0x0 0x0 0x0 0x0 0x0 0x0 0x0 0x0 0x0 0x0 0x0 0xa 0xd2 0xa 0x3 0x13 0x0 0x0 0x5 0x80 0x36 0x2 0x3 0x0 0x2e 0x0 0x5 0xe5 0xf3
2026-09-09 08:28:31,428 | DEBUG: Child Output: 08:28:31 WARNING serial:261 Cleanup recv buffer before send: 0x0 0x0 0x0 0x0 0x0 0x0 0x0 0x0 0x0 0x0 0x0 0x0 0x0 0x0 0x0 0x0 0x0 0x0 0x0 0x0 0x0 0x0 0x0 0x0 0x0 0x62 0xf 0xa 0x3 0x13 0x0 0x0 0x5 0x80 0x36
2026-09-09 08:28:31,658 | DEBUG: Child Output: 08:28:31 WARNING serial:261 Cleanup recv buffer before send: 0x2 0x3 0x3 0x26 0x0 0x5a 0x24 0x4d
2026-09-09 08:28:32,831 | DEBUG: Child Output: 08:28:32 WARNING serial:261 Cleanup recv buffer before send: 0xa 0x3 0x13 0x0 0x0 0x5 0x80 0x36
2026-09-09 08:28:34,037 | DEBUG: Child Output: 08:28:34 ERROR factory:331 unpack requires a buffer of 2 bytes
2026-09-09 08:28:34,038 | DEBUG: Child Output: 08:28:34 ERROR transaction:244 Modbus Error: [Input/Output] Unable to decode request
2026-09-09 08:28:34,039 | DEBUG: Child Output: Traceback (most recent call last):
2026-09-09 08:28:34,039 | DEBUG: Child Output: File "/usr/lib/python3/dist-packages/pymodbus/transaction.py", line 217, in execute
2026-09-09 08:28:34,039 | DEBUG: Child Output: self.client.framer.processIncomingPacket(
2026-09-09 08:28:34,039 | DEBUG: Child Output: File "/usr/lib/python3/dist-packages/pymodbus/framer/rtu_framer.py", line 239, in processIncomingPacket
2026-09-09 08:28:34,040 | DEBUG: Child Output: self._process(callback)
2026-09-09 08:28:34,040 | DEBUG: Child Output: File "/usr/lib/python3/dist-packages/pymodbus/framer/rtu_framer.py", line 331, in _process
2026-09-09 08:28:34,040 | DEBUG: Child Output: raise ModbusIOException("Unable to decode request")
2026-09-09 08:28:34,040 | DEBUG: Child Output: pymodbus.exceptions.ModbusIOException: Modbus Error: [Input/Output] Unable to decode request
2026-09-09 08:28:35,953 | DEBUG: Child Output: 08:28:35 WARNING serial:261 Cleanup recv buffer before send: 0xa 0x3 0x13 0x0 0x0 0x5 0x80 0x36
2026-09-09 08:28:37,662 | DEBUG: Child Output: 08:28:37 WARNING serial:261 Cleanup recv buffer before send: 0xa 0x3 0x13 0x0 0x0 0x5 0x80 0x36
2026-09-09 08:28:45,375 | DEBUG: Child Output: 08:28:45 WARNING serial:261 Cleanup recv buffer before send: 0x1 0x5 0x0 0x3 0xff 0x0 0x7c 0x3a 0x1 0x5 0x0 0x3 0xff 0x0 0x7c 0x3a 0x1 0x5 0x0 0x4 0x0 0x0 0x8c 0xb 0x1 0x85 0x2 0xc3 0x51 0x3 0x3 0x0 0x4 0x0 0x3 0x45 0xe8 0x1 0x3 0x0 0x0 0x0 0x4b 0x5 0xfd 0x1 0x3 0x96 0x58 0x33 0x57 0xd3 0x57 0xa1 0x99 0x16 0x98 0xb 0x98 0xa 0x0 0x0 0x0 0x0 0x0 0x0 0x0 0x0 0x0 0x0 0x0 0x0 0x0 0x0 0x0 0x0 0x0 0x0 0x0 0x0 0x0 0x0 0x0 0x0 0x0 0x0 0x0 0x0 0x0 0x0 0x0 0x0 0x0 0x0 0x0 0x0 0x13 0x85 0x0 0x0 0x0 0x0 0x0 0x0 0x0 0x0 0x0 0x0 0x0 0x0 0x0 0x0 0x0 0x0 0x0 0x0 0x0 0x0 0x0 0x0 0x0 0x0 0x0 0x0 0x0 0x0 0x0 0x0 0x5 0x80 0x36 0x2 0x3 0x0 0x2e 0x0 0x5 0xe5 0xf3
2026-09-09 08:28:46,345 | DEBUG: Child Output: 08:28:46 WARNING serial:261 Cleanup recv buffer before send: 0x2 0x3 0x3 0x26 0x0 0x5a 0x24 0x4d
2026-09-09 08:28:47,519 | DEBUG: Child Output: 08:28:47 WARNING serial:261 Cleanup recv buffer before send: 0xa 0x3 0x13 0x0 0x0 0x5 0x80 0x36
2026-09-09 08:28:48,728 | DEBUG: Child Output: 08:28:48 ERROR factory:331 unpack requires a buffer of 2 bytes
2026-09-09 08:28:48,728 | DEBUG: Child Output: 08:28:48 ERROR transaction:244 Modbus Error: [Input/Output] Unable to decode request
2026-09-09 08:28:48,728 | DEBUG: Child Output: Traceback (most recent call last):
2026-09-09 08:28:48,728 | DEBUG: Child Output: File "/usr/lib/python3/dist-packages/pymodbus/transaction.py", line 217, in execute
2026-09-09 08:28:48,729 | DEBUG: Child Output: self.client.framer.processIncomingPacket(
2026-09-09 08:28:48,729 | DEBUG: Child Output: File "/usr/lib/python3/dist-packages/pymodbus/framer/rtu_framer.py", line 239, in processIncomingPacket
2026-09-09 08:28:48,729 | DEBUG: Child Output: self._process(callback)
2026-09-09 08:28:48,729 | DEBUG: Child Output: File "/usr/lib/python3/dist-packages/pymodbus/framer/rtu_framer.py", line 331, in _process
2026-09-09 08:28:48,729 | DEBUG: Child Output: raise ModbusIOException("Unable to decode request")
2026-09-09 08:28:48,729 | DEBUG: Child Output: pymodbus.exceptions.ModbusIOException: Modbus Error: [Input/Output] Unable to decode request
2026-09-09 08:28:48,936 | DEBUG: Child Output: 08:28:48 WARNING serial:261 Cleanup recv buffer before send: 0xa 0x3 0x13 0x0 0x0 0x5 0x80 0x36
2026-09-09 08:28:50,642 | DEBUG: Child Output: 08:28:50 WARNING serial:261 Cleanup recv buffer before send: 0xa 0x3 0x13 0x0 0x0 0x5 0x80 0x36
2026-09-09 08:28:52,348 | DEBUG: Child Output: 08:28:52 WARNING serial:261 Cleanup recv buffer before send: 0xa 0x3 0x13 0x0 0x0 0x5 0x80 0x36
2026-09-09 08:29:00,661 | DEBUG: Child Output: 08:29:00 WARNING serial:261 Cleanup recv buffer before send: 0x0 0x0 0x0 0x0 0x0 0x0 0x0 0x0 0x0 0x0 0x0 0x0 0x0 0x0 0x0 0x0 0x0 0x0 0x0 0x0 0x0 0x0 0x0 0x0 0x0 0x23 0x9a 0xa 0x3 0x13 0x0 0x0 0x5 0x80 0x36
2026-09-09 08:29:00,891 | DEBUG: Child Output: 08:29:00 WARNING serial:261 Cleanup recv buffer before send: 0x2 0x3 0x3 0x26 0x0 0x5a 0x24 0x4d
2026-09-09 08:29:03,277 | DEBUG: Child Output: 08:29:03 ERROR factory:331 unpack requires a buffer of 2 bytes
2026-09-09 08:29:03,279 | DEBUG: Child Output: 08:29:03 ERROR transaction:244 Modbus Error: [Input/Output] Unable to decode request
2026-09-09 08:29:03,279 | DEBUG: Child Output: Traceback (most recent call last):
2026-09-09 08:29:03,279 | DEBUG: Child Output: File "/usr/lib/python3/dist-packages/pymodbus/transaction.py", line 217, in execute
2026-09-09 08:29:03,279 | DEBUG: Child Output: self.client.framer.processIncomingPacket(
2026-09-09 08:29:03,279 | DEBUG: Child Output: File "/usr/lib/python3/dist-packages/pymodbus/framer/rtu_framer.py", line 239, in processIncomingPacket
2026-09-09 08:29:03,279 | DEBUG: Child Output: self._process(callback)
2026-09-09 08:29:03,279 | DEBUG: Child Output: File "/usr/lib/python3/dist-packages/pymodbus/framer/rtu_framer.py", line 331, in _process
2026-09-09 08:29:03,279 | DEBUG: Child Output: raise ModbusIOException("Unable to decode request")
2026-09-09 08:29:03,279 | DEBUG: Child Output: pymodbus.exceptions.ModbusIOException: Modbus Error: [Input/Output] Unable to decode request
2026-09-09 08:29:03,486 | DEBUG: Child Output: 08:29:03 WARNING serial:261 Cleanup recv buffer before send: 0xa 0x3 0x13 0x0 0x0 0x5 0x80 0x36
2026-09-09 08:29:05,193 | DEBUG: Child Output: 08:29:05 WARNING serial:261 Cleanup recv buffer before send: 0xa 0x3 0x13 0x0 0x0 0x5 0x80 0x36
2026-09-09 08:29:06,903 | DEBUG: Child Output: 08:29:06 WARNING serial:261 Cleanup recv buffer before send: 0xa 0x3 0x13 0x0 0x0 0x5 0x80 0x36
2026-09-09 08:29:14,649 | DEBUG: Child Output: 08:29:14 WARNING serial:261 Cleanup recv buffer before send: 0x5 0xe5 0xf3
2026-09-09 08:29:16,894 | DEBUG: Child Output: 08:29:16 WARNING serial:261 Cleanup recv buffer before send: 0x0 0x0 0x0 0x0 0x0 0x0 0x0 0x0 0x0 0x0 0x0 0x0 0x0 0x0 0x0 0x0 0x0 0x0 0x0 0x0 0x0 0x0 0x0 0x0 0x0 0xed 0x42 0xa 0x3 0x13 0x0 0x0 0x5 0x80 0x36
2026-09-09 08:29:17,123 | DEBUG: Child Output: 08:29:17 WARNING serial:261 Cleanup recv buffer before send: 0x2 0x3 0x3 0x26 0x0 0x5a 0x24 0x4d
2026-09-09 08:29:19,505 | DEBUG: Child Output: 08:29:19 ERROR factory:331 unpack requires a buffer of 2 bytes
2026-09-09 08:29:19,506 | DEBUG: Child Output: 08:29:19 ERROR transaction:244 Modbus Error: [Input/Output] Unable to decode request
2026-09-09 08:29:19,506 | DEBUG: Child Output: Traceback (most recent call last):
2026-09-09 08:29:19,506 | DEBUG: Child Output: File "/usr/lib/python3/dist-packages/pymodbus/transaction.py", line 217, in execute
2026-09-09 08:29:19,506 | DEBUG: Child Output: self.client.framer.processIncomingPacket(
2026-09-09 08:29:19,506 | DEBUG: Child Output: File "/usr/lib/python3/dist-packages/pymodbus/framer/rtu_framer.py", line 239, in processIncomingPacket
2026-09-09 08:29:19,506 | DEBUG: Child Output: self._process(callback)
2026-09-09 08:29:19,506 | DEBUG: Child Output: File "/usr/lib/python3/dist-packages/pymodbus/framer/rtu_framer.py", line 331, in _process
2026-09-09 08:29:19,506 | DEBUG: Child Output: raise ModbusIOException("Unable to decode request")
2026-09-09 08:29:19,507 | DEBUG: Child Output: pymodbus.exceptions.ModbusIOException: Modbus Error: [Input/Output] Unable to decode request
2026-09-09 08:29:19,713 | DEBUG: Child Output: 08:29:19 WARNING serial:261 Cleanup recv buffer before send: 0xa 0x3 0x13 0x0 0x0 0x5 0x80 0x36
2026-09-09 08:29:21,420 | DEBUG: Child Output: 08:29:21 WARNING serial:261 Cleanup recv buffer before send: 0xa 0x3 0x13 0x0 0x0 0x5 0x80 0x36
2026-09-09 08:29:23,130 | DEBUG: Child Output: 08:29:23 WARNING serial:261 Cleanup recv buffer before send: 0xa 0x3 0x13 0x0 0x0 0x5 0x80 0x36
2026-09-09 08:29:32,779 | DEBUG: Child Output: 08:29:32 WARNING serial:261 Cleanup recv buffer before send: 0x0 0x0 0x0 0x0 0x0 0x0 0x0 0x0 0x0 0x0 0x0 0x0 0x0 0x0 0x0 0x0 0x0 0x0 0x0 0x0 0x0 0x0 0x0 0x0 0x0 0x0 0x0 0x0 0x0 0x0 0x0 0x0 0x0 0x0 0x0 0x0 0x3 0xbd 0xa 0x3 0x13 0x0 0x0 0x5 0x80 0x36 0x2 0x3 0x3 0x20 0x0 0x6 0xc4 0x75
2026-09-09 08:29:33,239 | DEBUG: Child Output: 08:29:33 WARNING serial:261 Cleanup recv buffer before send: 0x2 0x3 0x3 0x26 0x0 0x5a 0x24 0x4d
2026-09-09 08:29:33,469 | DEBUG: Child Output: 08:29:33 WARNING serial:261 Cleanup recv buffer before send: 0x1 0x3 0x0 0x0 0x0 0x4b 0x5 0xfd 0x1 0x3 0x96 0x58 0x71 0x57 0xe4 0x57 0x99 0x98 0xd2 0x98 0x16 0x98 0x23 0x0 0x0 0x0 0x0 0x0 0x0 0x0 0x0 0x0 0x0 0x0 0x0 0x0 0x0 0x0 0x0 0x0 0x0 0x0 0x0 0x0 0x0 0x0 0x0 0x0 0x0 0x0 0x0 0x0 0x0 0x0 0x0 0x0 0x0 0x0 0x0 0x13 0x88 0x0 0x0 0x0 0x0 0x0 0x0 0x0 0x0 0x0 0x0 0x0 0x0 0x0 0x0 0x0 0x0 0x0 0x0 0x0 0x0 0x0 0x0 0x0 0x0 0x0 0x0 0x0 0x0 0x0 0x0 0x0 0x5 0x0 0x26 0x57 0xfa 0x98 0x59 0x0 0x0 0x0 0x0 0x0 0x0 0x0 0x0 0x0 0x0 0x0 0x0 0x0 0x0 0x0 0x0 0x0 0x0 0x0 0x0 0x0 0x0 0x0 0x0 0x0 0x0 0x0 0x0 0x0 0x0 0x0 0x0 0x0 0x0 0x0 0x0 0x0
2026-09-09 08:29:33,679 | DEBUG: Child Output: 08:29:33 WARNING serial:261 Cleanup recv buffer before send: 0xa 0x3 0x13 0x0 0x0 0x5 0x80 0x36
2026-09-09 08:29:33,906 | DEBUG: Child Output: 08:29:33 WARNING serial:261 Cleanup recv buffer before send: 0x2 0x3 0x3 0x80 0x0 0x5a 0xc4 0x6e
2026-09-09 08:29:35,104 | DEBUG: Child Output: 08:29:35 WARNING serial:261 Cleanup recv buffer before send: 0xa 0x3 0x13 0x0 0x0 0x5 0x80 0x36
2026-09-09 08:29:36,808 | DEBUG: Child Output: 08:29:36 WARNING serial:261 Cleanup recv buffer before send: 0xa 0x3 0x13 0x0 0x0 0x5 0x80 0x36
2026-09-09 08:29:38,517 | DEBUG: Child Output: 08:29:38 WARNING serial:261 Cleanup recv buffer before send: 0xa 0x3 0x13 0x0 0x0 0x5 0x80 0x36
2026-09-09 08:29:45,933 | DEBUG: Child Output: 08:29:45 WARNING serial:261 Cleanup recv buffer before send: 0x1 0x3 0x96 0x58 0x70 0x57 0xe3 0x57 0x91 0x98 0xe1 0x98 0x35 0x98 0x33 0x0 0x0 0x0 0x0 0x0 0x0 0x0 0x0 0x0 0x0 0x0 0x0 0x0 0x0 0x0 0x0 0x0 0x0 0x0 0x0 0x0 0x0 0x0 0x0 0x0 0x0 0x0 0x0 0x0 0x0 0x0 0x0 0x0 0x0 0x0 0x0 0x13 0x87 0x0 0x0 0x0 0x0 0x0 0x0 0x0 0x0 0x0 0x0 0x0 0x0 0x0 0x0 0x0 0x0 0x0 0x0 0x0 0x0 0x0 0x0 0x0 0x0 0x0 0x0 0x0 0x0 0x0 0x0 0x0 0x5 0x0 0x26 0x57 0xf6 0x98 0x6d 0x0 0x0 0x0 0x0 0x0 0x0 0x0 0x0 0x0 0x0 0x0 0x0 0x0 0x0 0x0 0x0 0x0 0x0 0x0 0x0 0x0 0x0 0x0 0x0 0x0 0x0 0x0 0x0 0x0 0x0 0x0 0x0 0x0 0x0 0x0 0x0 0x0 0x0 0x0 0x0 0x0 0x0 0x0 0x0 0x0 0x0 0x0 0x0 0x0 0x55 0x78 0xa 0x3 0x13 0x0 0x0 0x5 0x80 0x36 0x2 0x3 0x3 0x20 0x0 0x6 0xc4 0x75
2026-09-09 08:29:46,393 | DEBUG: Child Output: 08:29:46 WARNING serial:261 Cleanup recv buffer before send: 0x2 0x7 0xf 0x27 0x1 0x5b 0x2d 0x5d 0xf5
2026-09-09 08:29:48,511 | DEBUG: Child Output: 08:29:48 WARNING serial:261 Cleanup recv buffer before send: 0xa 0x3 0x13 0x0 0x0 0x5 0x80 0x36
2026-09-09 08:29:50,216 | DEBUG: Child Output: 08:29:50 WARNING serial:261 Cleanup recv buffer before send: 0xa 0x3 0x13 0x0 0x0 0x5 0x80 0x36
2026-09-09 08:29:51,926 | DEBUG: Child Output: 08:29:51 WARNING serial:261 Cleanup recv buffer before send: 0xa 0x3 0x13 0x0 0x0 0x5 0x80 0x36
2026-09-09 08:29:53,633 | DEBUG: Child Output: 08:29:53 WARNING serial:261 Cleanup recv buffer before send: 0xa 0x3 0x13 0x0 0x0 0x5 0x80 0x36
2026-09-09 08:30:03,307 | DEBUG: Child Output: 08:30:03 WARNING serial:261 Cleanup recv buffer before send: 0x0 0x0 0x0 0x0 0x0 0x0 0x0 0x0 0x0 0x0 0x0 0x0 0x0 0x0 0x0 0x0 0x0 0x0 0x0 0x0 0x0 0x0 0x0 0x0 0x0 0x0 0x0 0x0 0x0 0x0 0x0 0x0 0x0 0x0 0x0 0x0 0xff 0x60 0xa 0x3 0x13 0x0 0x0 0x5 0x80 0x36 0x2 0x3 0x3 0x20 0x0 0x6 0xc4 0x75
2026-09-09 08:30:03,766 | DEBUG: Child Output: 08:30:03 WARNING serial:261 Cleanup recv buffer before send: 0x2 0x3 0x3 0x26 0x0 0x5a 0x24 0x4d
2026-09-09 08:30:04,071 | DEBUG: Child Output: 08:30:04 WARNING serial:261 Cleanup recv buffer before send: 0x0 0x0 0x0 0x0 0x0 0x0 0x0 0x0 0x0 0x0 0x0 0x0 0x0 0x0 0x0 0x0 0x0 0x0 0x0 0x0 0x0 0x0 0x0 0x0 0x0 0x2c 0x32 0xa 0x3 0x13 0x0 0x0 0x5 0x80 0x36
2026-09-09 08:30:04,301 | DEBUG: Child Output: 08:30:04 WARNING serial:261 Cleanup recv buffer before send: 0x2 0x3 0x3 0x80 0x0 0x5a 0xc4 0x6e
2026-09-09 08:30:05,330 | DEBUG: Child Output: 08:30:05 WARNING serial:261 Cleanup recv buffer before send: 0x0 0x0 0x0 0x0 0x0 0x0 0x0 0x0 0x0 0x0 0x0 0x0 0x0 0x0 0x0 0x0 0x0 0x0 0x0 0x0 0x0 0x0 0x0 0x0 0x0 0xf6 0x66 0xa 0x3 0x13 0x0 0x0 0x5 0x80 0x36
2026-09-09 08:30:07,177 | DEBUG: Child Output: 08:30:07 WARNING serial:261 Cleanup recv buffer before send: 0xa 0x3 0x13 0x0 0x0 0x5 0x80 0x36
2026-09-09 08:30:08,890 | DEBUG: Child Output: 08:30:08 WARNING serial:261 Cleanup recv buffer before send: 0xa 0x3 0x13 0x0 0x0 0x5 0x80 0x36
2026-09-09 08:30:10,596 | DEBUG: Child Output: 08:30:10 WARNING serial:261 Cleanup recv buffer before send: 0xa 0x3 0x13 0x0 0x0 0x5 0x80 0x36
2026-09-09 08:30:12,191 | DEBUG: Child Output: 08:30:12 WARNING serial:261 Cleanup recv buffer before send: 0x2 0x3 0x0 0x0 0x0 0x1d 0x85 0xf0
2026-09-09 08:30:16,006 | DEBUG: Data Handler | Check Current Excel Size
2026-09-09 08:30:16,006 | DEBUG: Data Handler | Backup Excel
2026-09-09 08:30:16,006 | DEBUG: Data Handler | Try to save Excel from work stage
2026-09-09 08:30:16,006 | DEBUG: Data Handler | Excel Size 34031
2026-09-09 08:30:16,006 | DEBUG: Data Handler | Backup Size 29259
2026-09-09 08:30:16,006 | DEBUG: Data Handler | Save Success
2026-09-09 08:30:20,234 | DEBUG: Child Output: 08:30:20 WARNING serial:261 Cleanup recv buffer before send: 0x0 0x0 0x0 0x0 0x0 0x0 0x0 0x0 0x0 0x0 0x0 0x0 0x0 0x0 0x0 0x0 0x0 0x0 0x0 0x0 0x0 0x0 0x0 0x0 0x0 0x3c 0x99 0xa 0x3 0x13 0x0 0x0 0x5 0x80 0x36 0x2 0x3 0x3 0x20 0x0 0x6 0xc4 0x75 0x1 0x3 0x0 0x0 0x0 0x4b 0x5 0xfd 0x1 0x3 0x96 0x58 0x50 0x57 0xc5 0x57 0x5f 0x98 0xd5 0x98 0x2f 0x0 0x0 0x0 0x0 0x0 0x0 0x0 0x0 0x0 0x0 0x0 0x0 0x0 0x0 0x0 0x0 0x0 0x0 0x0 0x0 0x0 0x0 0x0 0x0 0x0 0x0 0x0 0x0 0x0 0x0 0x0 0x0 0x0 0x0 0x0 0x0 0x0 0x0 0x0 0x0 0x0 0x0 0x4c 0x14
2026-09-09 08:30:21,537 | DEBUG: Child Output: 08:30:21 WARNING serial:261 Cleanup recv buffer before send: 0x1 0x3 0x0 0x0 0x0 0x4b 0x5 0xfd
2026-09-09 08:30:21,746 | DEBUG: Child Output: 08:30:21 WARNING serial:261 Cleanup recv buffer before send: 0x0 0x0 0x0 0x0 0x0 0x0 0x0 0x0 0x0 0x0 0x0 0x0 0x0 0x0 0x0 0x0 0x0 0x0 0x0 0x0 0x0 0x0 0x0 0x0 0x0 0x0 0x0 0x0 0x0 0x0 0x0 0x0 0x0 0x0 0x0 0x0 0x0 0x0 0x0 0x0 0x0 0x0 0x0 0x0 0x0 0x0 0x0 0x0 0x0 0x0 0x0 0x0 0x0 0x0 0x0 0x0 0x0 0x0 0x0 0x0 0x7b 0xc0 0xa 0x3 0x13 0x0 0x0 0x5 0x80 0x36
2026-09-09 08:30:23,502 | DEBUG: Child Output: 08:30:23 WARNING serial:261 Cleanup recv buffer before send: 0xa 0x3 0x13 0x0 0x0 0x5 0x80 0x36
2026-09-09 08:30:25,211 | DEBUG: Child Output: 08:30:25 WARNING serial:261 Cleanup recv buffer before send: 0xa 0x3 0x13 0x0 0x0 0x5 0x80 0x36
2026-09-09 08:30:32,919 | DEBUG: Child Output: 08:30:32 WARNING serial:261 Cleanup recv buffer before send: 0x2 0x3 0x3 0x26 0x0 0x5a 0x24 0x4d
2026-09-09 08:30:33,149 | DEBUG: Child Output: 08:30:33 WARNING serial:261 Cleanup recv buffer before send: 0x55 0xfd
2026-09-09 08:30:33,606 | DEBUG: Child Output: 08:30:33 WARNING serial:261 Cleanup recv buffer before send: 0xa 0x3 0x13 0x0 0x0 0x5 0x80 0x36
2026-09-09 08:30:35,327 | DEBUG: Child Output: 08:30:35 WARNING serial:261 Cleanup recv buffer before send: 0xa 0x3 0x13 0x0 0x0 0x5 0x80 0x36
2026-09-09 08:30:36,892 | DEBUG: Child Output: 08:30:36 WARNING serial:261 Cleanup recv buffer before send: 0x0 0x0 0x0 0x0 0x0 0x0 0x0 0x0 0x0 0x0 0x0 0x0 0x0 0x0 0x0 0x0 0x0 0x0 0x0 0x0 0x0 0x0 0x0 0x0 0x0 0x28 0xb9 0xa 0x3 0x13 0x0 0x0 0x5 0x80 0x36
2026-09-09 08:30:38,745 | DEBUG: Child Output: 08:30:38 WARNING serial:261 Cleanup recv buffer before send: 0xa 0x3 0x13 0x0 0x0 0x5 0x80 0x36
2026-09-09 08:30:40,452 | DEBUG: Child Output: 08:30:40 WARNING serial:261 Cleanup recv buffer before send: 0xa 0x3 0x13 0x0 0x0 0x5 0x80 0x36
2026-09-09 08:30:48,171 | DEBUG: Child Output: 08:30:48 WARNING serial:261 Cleanup recv buffer before send: 0x1 0x5 0x0 0x3 0xff 0x0 0x7c 0x3a 0x1 0x5 0x0 0x3 0xff 0x0 0x7c 0x3a 0x1 0x5 0x0 0x4 0x0 0x0 0x8c 0xb 0x1 0x85 0x2 0xc3 0x51 0x3 0x3 0x0 0x4 0x0 0x3 0x45 0xe8 0x1 0x3 0x0 0x0 0x0 0x4b 0x5 0xfd 0x1 0x3 0x96 0x58 0x49 0x57 0xbd 0x57 0x67 0x98 0x89 0x97 0xd5 0x97 0xce 0x0 0x0 0x0 0x0 0x0 0x0 0x0 0x0 0x0 0x0 0x0 0x0 0x0 0x0 0x0 0x0 0x0 0x0 0x0 0x0 0x0 0x0 0x0 0x0 0x0 0x0 0x0 0x0 0x0 0x0 0x0 0x0 0x0 0x0 0x0 0x0 0x13 0x88 0x0 0x0 0x0 0x0 0x0 0x0 0x0 0x0 0x0 0x0 0x0 0x0 0x0 0x0 0x0 0x0 0x0 0x0 0x0 0x0 0x0 0x0 0x0 0x0 0x0 0x0 0x0 0x0 0x0 0x0 0x5 0x80 0x36 0x2 0x3 0x0 0x2e 0x0 0x5 0xe5 0xf3
2026-09-09 08:30:50,429 | DEBUG: Child Output: 08:30:50 WARNING serial:261 Cleanup recv buffer before send: 0x0 0x0 0x0 0x0 0x0 0x0 0x0 0x0 0x0 0x0 0x0 0x0 0x0 0x0 0x0 0x0 0x0 0x0 0x0 0x0 0x0 0x0 0x0 0x0 0x0 0xb6 0x6c 0xa 0x3 0x13 0x0 0x0 0x5 0x80 0x36
2026-09-09 08:30:51,689 | DEBUG: Child Output: 08:30:51 WARNING serial:261 Cleanup recv buffer before send: 0x0 0x0 0x0 0x0 0x0 0x0 0x0 0x0 0x0 0x0 0x0 0x0 0x0 0x0 0x0 0x0 0x0 0x0 0x0 0x0 0x0 0x0 0x0 0x0 0x0 0xa7 0xc2 0xa 0x3 0x13 0x0 0x0 0x5 0x80 0x36
2026-09-09 08:30:53,537 | DEBUG: Child Output: 08:30:53 WARNING serial:261 Cleanup recv buffer before send: 0xa 0x3 0x13 0x0 0x0 0x5 0x80 0x36
2026-09-09 08:30:55,241 | DEBUG: Child Output: 08:30:55 WARNING serial:261 Cleanup recv buffer before send: 0xa 0x3 0x13 0x0 0x0 0x5 0x80 0x36
